!Keysight Technologies,N5244B,MY57181157,A.18.40.03
!Date: Wednesday, September 10, 2025 10:25:03
!Correction: S11(C  3-Port  ) 
!S12(C  3-Port  ) 
!S13(C  3-Port  ) 
!S21(C  3-Port  ) 
!S22(C  3-Port  ) 
!S23(C  3-Port  ) 
!S31(C  3-Port  ) 
!S32(C  3-Port  ) 
!S33(C  3-Port  ) 
!S3P File: Measurements: <S11,S12,S13>,
!<S21,S22,S23>,
!<S31,S32,S33>:
# Hz S  RI   R 50
10000000 0.88953418 -0.1650525 0.040614177 -0.01233107 -0.00012213542 0.0003125896
-1.7682872 -3.7592263 0.71299034 -0.39730093 0.0034171699 -0.0088665867
-1.5066645 7.8749485 -3.0610647 -1.2405257 -0.25264436 -0.82906884
11000000 0.87753642 -0.18009034 0.041430324 -0.012036354 0.00017145542 -0.00055167521
-2.0095162 -4.0493474 0.69461328 -0.42539296 0.0041375384 -0.00792039
-1.106566 9.0310631 -3.2356081 -1.1022224 -0.32042614 -0.80901492
12000000 0.87290061 -0.19496027 0.039256658 -0.013411086 -0.00031086573 -0.00049234257
-2.3094988 -4.3179207 0.66483152 -0.45823109 0.003837683 -0.0085323183
-0.51803017 10.187933 -3.3717413 -0.86176515 -0.39212313 -0.78524113
13000000 0.86407959 -0.20912364 0.039695609 -0.012861079 6.1215353e-05 1.2765502e-05
-2.6048918 -4.5150905 0.63852918 -0.4824568 0.002614812 -0.0072271056
-0.065815926 11.024996 -3.4122953 -0.7916317 -0.42540365 -0.75837195
14000000 0.85671043 -0.21582478 0.037787106 -0.013557338 0.00017447541 -0.00029178735
-2.8213732 -4.7062278 0.61448735 -0.49910912 0.0024100763 -0.006607281
0.65751171 11.751633 -3.4715447 -0.59584463 -0.47687912 -0.7328276
15000000 0.84846997 -0.22757584 0.037720352 -0.014886296 -0.00021021368 -0.00041018499
-3.1635752 -4.8618431 0.58992475 -0.52144271 0.0021116724 -0.0057372898
1.4189062 12.596083 -3.5176713 -0.47763324 -0.51325274 -0.70253319
16000000 0.83295161 -0.23819569 0.037192184 -0.015942682 -0.00014218804 -0.0006194397
-3.4798725 -4.9951668 0.55359572 -0.54430294 0.0015742973 -0.0051504988
2.5068579 13.515882 -3.5654905 -0.25587559 -0.5597133 -0.68033141
17000000 0.82781082 -0.24723618 0.03641298 -0.016568404 -0.00021335691 -0.00039149221
-3.7112112 -5.2115173 0.54030389 -0.56542832 0.0017038826 -0.0052788001
2.9669929 14.000125 -3.5616031 -0.13472176 -0.58380789 -0.64591163
18000000 0.81885338 -0.2619583 0.035503536 -0.016530689 -0.00014367237 5.4130367e-05
-4.000567 -5.3273644 0.50976419 -0.57984102 0.0013228827 -0.00428617
3.7858005 14.712975 -3.5576439 0.0024213791 -0.6110782 -0.62006617
19000000 0.80923796 -0.26776063 0.03471474 -0.016948856 0.00037456022 -0.00010768941
-4.2938681 -5.3685718 0.48081192 -0.58751309 0.001417133 -0.003182099
4.8504176 14.888362 -3.5064807 0.13804853 -0.63661015 -0.5896486
20000000 0.80171627 -0.27481088 0.033730887 -0.017015578 2.0657983e-05 -0.00014204893
-4.5370946 -5.4810596 0.45563182 -0.59920287 0.00099804089 -0.0029129256
5.5991559 15.293251 -3.4846175 0.23743415 -0.65241164 -0.5717622
21000000 0.79292464 -0.28885803 0.033031896 -0.017697986 0.00045295258 0.0001057597
-4.8742085 -5.6380744 0.4344117 -0.62281668 0.00082468445 -0.0026331232
6.3504095 16.054329 -3.5026588 0.34100282 -0.67132163 -0.5577479
22000000 0.78624988 -0.29263982 0.032268442 -0.017788105 -0.00040644582 -0.00039520749
-5.1165171 -5.6425314 0.41288492 -0.62643284 0.00075295818 -0.0014970271
7.2186832 16.091265 -3.4465854 0.43244684 -0.68848932 -0.52834171
23000000 0.77490944 -0.29383492 0.031675432 -0.01842753 -5.5149794e-06 -0.00034187417
-5.3622026 -5.6467972 0.38215637 -0.63483113 0.00060506439 -0.0029689835
8.083848 16.425936 -3.4097211 0.51685375 -0.70425713 -0.5162257
24000000 0.76797879 -0.3067475 0.030933889 -0.018384865 -3.6205747e-06 0.00018674271
-5.6332293 -5.7787476 0.36311287 -0.6427995 0.00095230842 -0.0013722108
8.5219612 16.678736 -3.3534577 0.56461293 -0.70312357 -0.50437689
25000000 0.75893748 -0.31093192 0.030461373 -0.018557498 -0.00016152761 0.00010265649
-5.9308968 -5.7912774 0.3350305 -0.65358949 0.0015490442 -0.0012654626
9.6475897 16.840115 -3.3077629 0.68774486 -0.72680658 -0.47704852
26000000 0.74780965 -0.31821692 0.029863354 -0.018663015 0.00027460686 -0.00012284971
-6.2348065 -5.7988224 0.30947506 -0.66412097 0.0011352396 -0.00060875522
10.406219 17.101332 -3.2677402 0.74641895 -0.73267692 -0.46645981
27000000 0.73904544 -0.32477033 0.029179817 -0.018840879 0.00010286788 -0.00027054522
-6.4692154 -5.7971249 0.2868948 -0.66214395 0.00095775881 -0.00065490103
11.270727 17.023216 -3.1938238 0.79970044 -0.74191576 -0.4519901
28000000 0.73209906 -0.32948905 0.028162131 -0.018676912 -0.0001180655 -0.00054205937
-6.7206216 -5.7929931 0.26172844 -0.66765457 0.00097657531 -0.00043003185
11.945924 16.960445 -3.1179345 0.86816823 -0.74508935 -0.43640006
29000000 0.72159082 -0.33225045 0.027881177 -0.01880515 -3.3488934e-07 0.0001500137
-6.9732623 -5.6798682 0.23816161 -0.66820651 0.0018854678 -0.00021575407
13.242105 17.28968 -3.1401637 0.94728792 -0.76549226 -0.43029621
30000000 0.71877587 -0.33618617 0.027420346 -0.019032948 4.3052292e-05 2.1863965e-05
-7.1553645 -5.7365437 0.22584708 -0.67546368 0.001486232 0.00011397121
13.360413 17.093863 -3.0694885 0.9469384 -0.76513749 -0.41374928
31000000 0.70681542 -0.34408054 0.026284136 -0.019623343 0.00034781775 -0.00026856881
-7.4651508 -5.7193456 0.20042931 -0.68179864 0.0015510023 -0.00014946482
14.280514 17.067841 -3.0025322 1.0200512 -0.77060723 -0.39979309
32000000 0.69833583 -0.35073048 0.025880853 -0.01950519 0.0003433447 0.00020297011
-7.6883702 -5.6243315 0.17468566 -0.67901808 0.0016747465 0.00036164283
14.972552 17.190838 -2.9749141 1.0408392 -0.77880949 -0.39311901
33000000 0.69244802 -0.35088551 0.024653617 -0.019242249 0.00010293727 6.1908322e-05
-7.8501315 -5.5427938 0.16341388 -0.67760921 0.0016399767 0.00061605213
15.517238 16.737007 -2.9165514 1.059145 -0.78286111 -0.38174143
34000000 0.68450451 -0.35780388 0.024750791 -0.018924467 -7.121508e-05 0.00012464645
-8.1202288 -5.5194812 0.14148977 -0.68066609 0.001744141 0.00058749708
16.113506 17.014801 -2.893414 1.0805485 -0.78516841 -0.37763828
35000000 0.67773312 -0.35736477 0.023800405 -0.019384705 0.0002922749 0.00015873257
-8.2927704 -5.4091177 0.11952093 -0.67425704 0.0018378169 0.00076582271
16.877518 16.601408 -2.8105612 1.1137724 -0.78696692 -0.36261615
36000000 0.66908926 -0.36166561 0.022980344 -0.019091945 -0.00032410646 -0.00016064898
-8.5235825 -5.3622646 0.10521841 -0.67872244 0.0017549793 0.0012676811
17.43247 16.458841 -2.7635972 1.1518801 -0.79538232 -0.35257486
37000000 0.66153681 -0.36248142 0.022728667 -0.018792477 -2.000379e-06 0.00015860816
-8.7036209 -5.2364154 0.083565533 -0.67584479 0.0021532129 0.0011350858
18.022495 16.187571 -2.7196512 1.1612127 -0.79548413 -0.34745368
38000000 0.65279222 -0.36496359 0.022651855 -0.019215254 0.00017829851 4.702689e-05
-8.882535 -5.1643734 0.066249579 -0.67596596 0.002133111 0.0014277481
18.75601 15.949879 -2.6719232 1.2104247 -0.80182678 -0.33387533
39000000 0.64529145 -0.36764425 0.022352807 -0.018909071 0.00019487992 1.2697295e-05
-9.0416679 -5.08955 0.052344441 -0.67393041 0.002213839 0.00074040226
19.223703 15.921864 -2.6453862 1.2192792 -0.80817515 -0.32975852
40000000 0.64003235 -0.37326509 0.021874305 -0.018914934 3.5697001e-05 6.6326851e-05
-9.236062 -4.9586191 0.032472819 -0.67205375 0.0020492037 0.0014453816
19.597534 15.731125 -2.5955982 1.1964395 -0.80441487 -0.32395798
41000000 0.63490403 -0.37559006 0.02078229 -0.018886697 0.00030351986 -0.00030456306
-9.3845959 -4.8882751 0.016214937 -0.66829544 0.0023751629 0.0016396544
20.22821 15.500479 -2.5501766 1.2221439 -0.80616832 -0.31886137
42000000 0.62774158 -0.37820661 0.02034143 -0.019078039 -0.0003512699 -0.0001408853
-9.5510521 -4.8338375 0.0020596981 -0.66483641 0.0023305744 0.0015249138
20.822767 15.357038 -2.5214438 1.2588968 -0.81464022 -0.31388849
43000000 0.619605 -0.38068983 0.020043146 -0.018710386 0.00018215115 0.00010119162
-9.7733259 -4.7031102 -0.017249167 -0.66590369 0.0026029949 0.0019037768
21.562777 15.051212 -2.4753587 1.2915509 -0.82032996 -0.29879335
44000000 0.61574566 -0.37860745 0.019357234 -0.018462522 0.00013249376 -5.7959551e-07
-9.8063641 -4.5822067 -0.02902928 -0.65499848 0.0022508369 0.00204206
22.087296 14.596479 -2.4418831 1.3057067 -0.82683116 -0.29807985
45000000 0.61208797 -0.38491637 0.019152945 -0.018242283 0.00010084944 -0.00011726184
-9.9588032 -4.5044203 -0.041905463 -0.6503253 0.0027513041 0.001622624
22.188526 14.355076 -2.3766134 1.270839 -0.81891656 -0.29302663
46000000 0.60239571 -0.38749471 0.018911295 -0.018138938 3.3300828e-05 6.2667466e-05
-10.167443 -4.3291903 -0.059407741 -0.65257096 0.0027899491 0.0019645465
22.668634 14.204281 -2.3554425 1.2879868 -0.82060885 -0.28359246
47000000 0.60191059 -0.38654578 0.018288707 -0.01781588 0.00026740332 0.0001296867
-10.21784 -4.2910299 -0.063182801 -0.64828783 0.0027441946 0.0017995469
22.832043 13.78397 -2.3285592 1.2801765 -0.8249408 -0.27822554
48000000 0.59487706 -0.38710114 0.018211557 -0.017963609 0.00019258766 -0.0001143406
-10.361624 -4.1766019 -0.077843606 -0.6410116 0.0028058398 0.0022862717
23.389759 13.386091 -2.279604 1.303221 -0.82745767 -0.27007291
49000000 0.59019715 -0.39230382 0.018036246 -0.01785456 -8.08404e-06 -0.00022154542
-10.507881 -4.0782967 -0.0901867 -0.64341652 0.0032885491 0.0019691424
23.80838 13.328918 -2.2729599 1.3121068 -0.83082891 -0.2682251
50000000 0.58455408 -0.39381668 0.017146515 -0.017597536 0.000135771 1.9868727e-05
-10.619526 -3.9841397 -0.098411441 -0.6352272 0.0029332 0.002048448
23.909315 13.096237 -2.2335148 1.2805798 -0.82942152 -0.26571763
51000000 0.57842052 -0.39918965 0.017271141 -0.017506372 0.00021232417 0.00030680973
-10.761891 -3.7970519 -0.11905193 -0.63285965 0.0029676533 0.0022153549
24.639042 12.776249 -2.1984689 1.3008521 -0.83104378 -0.26225784
52000000 0.57571429 -0.39585727 0.016871853 -0.017211802 -9.3521019e-05 1.0386439e-05
-10.84366 -3.7345753 -0.12286092 -0.62630916 0.0030890848 0.0024441069
24.814381 12.400448 -2.1695666 1.2975426 -0.83247417 -0.25562599
53000000 0.57024395 -0.39960656 0.016463596 -0.01708922 8.0736834e-05 0.00012663068
-10.985856 -3.588578 -0.1367037 -0.6233381 0.0035492689 0.0026627625
25.217533 12.066317 -2.1264665 1.3042548 -0.8347488 -0.24772081
54000000 0.56660563 -0.40119207 0.016378049 -0.016792867 7.7663397e-05 0.0003581862
-11.075832 -3.5076265 -0.14682321 -0.61987591 0.0033025653 0.0026329774
25.484005 12.02989 -2.1222811 1.2980042 -0.83673501 -0.25030547
55000000 0.56003779 -0.39920712 0.015872147 -0.016581722 6.3661428e-05 -2.7606808e-05
-11.066935 -3.3364923 -0.15711188 -0.61048132 0.0033509671 0.0025972654
25.915928 11.613694 -2.0938506 1.3049446 -0.84169292 -0.24564169
56000000 0.55575031 -0.40618116 0.015305113 -0.016558118 0.00017381986 0.00011722821
-11.231456 -3.2287974 -0.1685501 -0.60673976 0.003159943 0.0027674544
26.014616 11.032574 -2.0419483 1.2935158 -0.84031695 -0.23848072
57000000 0.55490679 -0.40763777 0.015543466 -0.016364634 0.00013754783 -0.00022272329
-11.298613 -3.145879 -0.17120568 -0.60604566 0.0033329555 0.00204919
26.144955 10.708852 -2.0258675 1.2908031 -0.83787048 -0.23213583
58000000 0.54943866 -0.41208851 0.015057614 -0.016533699 2.674361e-05 0.00018750865
-11.409726 -3.0314841 -0.18430315 -0.60439491 0.0032755095 0.0026191359
26.641911 10.759007 -2.0177917 1.3094535 -0.84575462 -0.23363945
59000000 0.54345584 -0.40972537 0.014438117 -0.015546413 0.0001082181 -0.00045652903
-11.394663 -2.902411 -0.18907872 -0.5902794 0.0036378179 0.0024442857
26.954571 9.8318472 -1.9628997 1.2962316 -0.84244227 -0.22294945
60000000 0.53972483 -0.40705338 0.014365234 -0.01592645 0.00011936312 -6.6206965e-05
-11.446797 -2.7686639 -0.19875182 -0.58715302 0.0032942714 0.0026673086
27.03834 9.8205643 -1.9603288 1.2827587 -0.84716791 -0.22572246
61000000 0.5364545 -0.41254589 0.014171671 -0.015720105 -6.2499472e-05 0.00020868298
-11.540531 -2.7582612 -0.20616534 -0.58598816 0.0034909933 0.0026564721
27.228426 9.3740158 -1.9156085 1.3067721 -0.84722376 -0.21661013
62000000 0.53449225 -0.41760185 0.014435273 -0.016152043 0.00035708005 0.00015033485
-11.695178 -2.6094263 -0.21643704 -0.58508456 0.0039396365 0.0030723817
27.523706 9.4009695 -1.9186184 1.2867514 -0.84688866 -0.22244446
63000000 0.5282163 -0.41614515 0.013812348 -0.01573813 -8.8442917e-05 8.9567649e-05
-11.677062 -2.3812704 -0.22503036 -0.57573301 0.003638023 0.0027839006
27.70932 8.8916082 -1.8880353 1.2683228 -0.84510368 -0.21770182
64000000 0.52607965 -0.41858679 0.013327774 -0.01560724 0.00013041633 -6.8979578e-05
-11.781349 -2.3758044 -0.23001212 -0.57333225 0.0038651705 0.0025144969
27.802292 8.5533686 -1.855364 1.285396 -0.8481766 -0.20706975
65000000 0.52147347 -0.42180791 0.013554594 -0.014933172 -1.0302301e-05 -0.00015383576
-11.809386 -2.2714014 -0.23486598 -0.56740284 0.0037851708 0.0026917625
28.067591 8.3679066 -1.8566666 1.2680885 -0.85398 -0.21074802
66000000 0.51733243 -0.42453945 0.013323503 -0.015329344 4.5430061e-06 0.00019252319
-11.91637 -2.1350417 -0.2461184 -0.56916261 0.0039043115 0.0029550411
28.238354 8.1511078 -1.8358655 1.2791837 -0.84888875 -0.20687434
67000000 0.51268625 -0.42281675 0.01371082 -0.014880617 0.00034529666 0.00052679237
-11.906513 -1.9741509 -0.24763435 -0.56209421 0.0040015066 0.0029227936
28.439445 7.8294811 -1.8305049 1.2521439 -0.85184133 -0.20608854
68000000 0.50817907 -0.42819476 0.012979103 -0.014610507 8.9293375e-05 0.00024370142
-11.99614 -1.8433564 -0.25867206 -0.55570817 0.0040522013 0.002841827
28.722475 7.5446186 -1.7985201 1.2583439 -0.85352939 -0.2022333
69000000 0.50464833 -0.42749316 0.012738618 -0.0147256 0.00022228312 0.00013872936
-12.006253 -1.7568495 -0.26669335 -0.55024189 0.0044775312 0.0032518485
28.882702 7.1187768 -1.7698686 1.2687522 -0.85358596 -0.19696116
70000000 0.5028832 -0.42822766 0.012528077 -0.014351682 -0.00013745754 2.4449731e-05
-12.057286 -1.6704035 -0.27091154 -0.54997838 0.004202208 0.0030368343
28.810343 6.8139772 -1.7622638 1.2615912 -0.8544656 -0.1952765
71000000 0.50128847 -0.43185323 0.012492777 -0.013999134 0.00015708577 0.00024439368
-12.108792 -1.6028905 -0.27433026 -0.54418242 0.0044357562 0.0027384267
28.977032 6.4154873 -1.7359195 1.2565084 -0.85600507 -0.18826118
72000000 0.49460292 -0.43089736 0.012095741 -0.014115656 -7.3402349e-05 0.00015036119
-12.092162 -1.4214649 -0.28283125 -0.53597093 0.004410733 0.0032961643
29.165245 6.1088629 -1.7145089 1.2455207 -0.85510695 -0.18784556
73000000 0.4896844 -0.43420184 0.011930306 -0.013962281 0.00030244881 -0.00013789578
-12.199017 -1.3003201 -0.2899915 -0.53585255 0.0042873379 0.0032133153
29.257801 5.7412558 -1.6957545 1.2426189 -0.8542366 -0.18316299
74000000 0.48923802 -0.43602794 0.012254404 -0.013741421 -8.9027875e-05 -2.0698619e-05
-12.197641 -1.2132292 -0.2931903 -0.53040844 0.0039330013 0.003488787
29.3484 5.5755482 -1.6862658 1.2329168 -0.8548125 -0.18128711
75000000 0.48653796 -0.43727666 0.011957308 -0.013393718 -1.7236622e-05 -1.9149804e-05
-12.219603 -1.1923265 -0.29152963 -0.52879006 0.0041840654 0.0034757825
29.27722 5.4662495 -1.6916989 1.2165717 -0.85311514 -0.18340841
76000000 0.48215514 -0.43652734 0.011544249 -0.01366496 0.00035538041 -7.607531e-05
-12.242458 -1.0153637 -0.30388379 -0.52255601 0.0047522271 0.0031419445
29.53017 4.9033022 -1.6550219 1.2361432 -0.8576951 -0.17792094
77000000 0.4782725 -0.43743125 0.011555474 -0.013475521 2.5891164e-05 -0.00010021665
-12.240135 -0.89410019 -0.30460054 -0.51661956 0.0041730208 0.0029858709
29.362919 4.7522211 -1.6485022 1.1942306 -0.85369027 -0.18359548
78000000 0.47596848 -0.44519234 0.011272461 -0.013202928 0.00019567474 0.00046719846
-12.299252 -0.79830074 -0.31505084 -0.51400268 0.0046648164 0.0033379709
30.014574 4.4384708 -1.6373169 1.2274354 -0.85488057 -0.18056354
79000000 0.47201228 -0.44126889 0.01110852 -0.013294884 0.00031576719 -0.00025925905
-12.306298 -0.7011261 -0.31676739 -0.5108332 0.0048489626 0.0026999367
29.919769 4.3283625 -1.6353337 1.2099973 -0.85759151 -0.1779258
80000000 0.46917877 -0.44361195 0.011400741 -0.013242583 0.00026496753 0.00040805273
-12.374245 -0.56698084 -0.32293448 -0.51003134 0.0043665748 0.0035125588
29.765676 3.9231901 -1.6099093 1.2055327 -0.85767758 -0.17388055
81000000 0.46681511 -0.44371369 0.011275227 -0.012772127 7.3453586e-05 0.00018847213
-12.33288 -0.46357393 -0.32737193 -0.50240523 0.004281254 0.0038456961
30.02021 3.717145 -1.597738 1.1975404 -0.85978132 -0.17483385
82000000 0.46459717 -0.44753534 0.010959879 -0.012790643 7.8202866e-05 -0.00010854854
-12.366618 -0.43334389 -0.32754749 -0.50082654 0.004425473 0.0033446057
29.950298 3.3879719 -1.5879067 1.1896019 -0.85919416 -0.17070468
83000000 0.46133995 -0.44917321 0.010793577 -0.012463528 4.0730898e-05 9.1520022e-05
-12.371747 -0.26702738 -0.33627707 -0.49635935 0.0044524334 0.0037185026
30.126724 3.2612734 -1.571066 1.1949053 -0.85806113 -0.16586658
84000000 0.45962119 -0.44848007 0.01077269 -0.012515597 0.00017556682 0.00035670467
-12.353678 -0.2650075 -0.33405808 -0.48983642 0.0048626903 0.003523252
30.094875 2.6938877 -1.5625706 1.1779699 -0.861561 -0.1676569
85000000 0.45472771 -0.4537608 0.010652164 -0.012151682 0.00024887692 7.463857e-05
-12.43047 -0.082888126 -0.34277055 -0.48853052 0.0049448307 0.0034644764
30.3969 2.5491204 -1.5580736 1.1810169 -0.86388242 -0.16611345
86000000 0.45490584 -0.45445248 0.010971207 -0.012336703 0.0002198232 0.0002681035
-12.452759 -0.073905945 -0.34299839 -0.48878351 0.0048064659 0.0035626048
30.032345 2.2879395 -1.5464269 1.1738658 -0.85994387 -0.15891567
87000000 0.45223004 -0.456247 0.01037465 -0.011838265 0.00017616172 0.00049786171
-12.467759 0.045863271 -0.35031691 -0.48325154 0.005002399 0.0040619429
30.270035 2.0556412 -1.5352647 1.1714906 -0.86480719 -0.16020066
88000000 0.44654691 -0.4595176 0.010634091 -0.011878299 -6.8671092e-05 0.00013391484
-12.433251 0.19863069 -0.35397702 -0.47717664 0.0048776465 0.0040026698
30.162121 1.6553454 -1.5004641 1.1521583 -0.85763347 -0.15670243
89000000 0.44274944 -0.45660734 0.010446993 -0.011826015 6.3540268e-05 0.0001027301
-12.377017 0.30807668 -0.35644296 -0.47184771 0.0047770911 0.0038230876
30.698772 1.3426397 -1.5169208 1.1682825 -0.86677462 -0.16138656
90000000 0.43905711 -0.46001458 0.010106783 -0.011573214 6.812904e-05 0.00014686023
-12.421794 0.37210917 -0.3592751 -0.47284988 0.0049213869 0.0037006387
30.314857 1.3066964 -1.5054376 1.1504438 -0.85878724 -0.159825
91000000 0.43503767 -0.46316445 0.010311968 -0.011418007 0.00016348014 -0.00011024821
-12.465963 0.47380632 -0.36383191 -0.46836066 0.0050393264 0.0038141899
30.408812 1.0502188 -1.4924283 1.1359992 -0.85955399 -0.15737996
92000000 0.4345099 -0.46451637 0.0099555468 -0.011312779 7.6730605e-05 6.2814652e-05
-12.449838 0.52924216 -0.36529404 -0.46471068 0.0050190906 0.0040187305
30.405142 0.72803879 -1.4797785 1.1310433 -0.86032951 -0.15752393
93000000 0.43337521 -0.46683434 0.010347985 -0.011349432 -6.0557351e-05 0.00011618262
-12.503637 0.61731923 -0.36804625 -0.46376237 0.0052357242 0.0037249755
30.37104 0.38750839 -1.4648631 1.1385223 -0.8628906 -0.15027237
94000000 0.43185008 -0.46938229 0.0099493098 -0.011072291 -9.1106442e-05 0.00015741625
-12.447098 0.71452761 -0.37264276 -0.45915133 0.0052009015 0.0038686348
30.713802 0.24325609 -1.4701867 1.1429024 -0.86762941 -0.15491924
95000000 0.42435327 -0.46733135 0.0096133268 -0.011034561 2.3565117e-05 0.00020489529
-12.399239 0.80554891 -0.3740136 -0.45281827 0.0049921577 0.0038680059
30.489397 -0.17496586 -1.4474338 1.1236787 -0.86408931 -0.14877404
96000000 0.42376918 -0.47306296 0.0098410193 -0.010734539 -0.00013216298 0.00014403072
-12.465764 0.90891576 -0.37779742 -0.45355123 0.0052343011 0.0039640134
30.61801 -0.2520647 -1.4520438 1.1248031 -0.86783969 -0.15056795
