!Keysight Technologies,N5244B,MY57181157,A.18.40.03
!Date: Wednesday, September 10, 2025 10:33:10
!Correction: S11(C  3-Port  ) 
!S12(C  3-Port  ) 
!S13(C  3-Port  ) 
!S21(C  3-Port  ) 
!S22(C  3-Port  ) 
!S23(C  3-Port  ) 
!S31(C  3-Port  ) 
!S32(C  3-Port  ) 
!S33(C  3-Port  ) 
!S3P File: Measurements: <S11,S12,S13>,
!<S21,S22,S23>,
!<S31,S32,S33>:
# Hz S  RI   R 50
10000000 0.89042556 -0.1616503 0.0402724 -0.013143241 -0.00092814694 -0.00052293105
-1.6830279 -3.5861487 0.71098006 -0.40024427 0.004516786 -0.0096218996
-1.0128169 7.1769338 -2.9636965 -1.0182414 -0.35401919 -0.79668677
11000000 0.88112181 -0.17565635 0.040775634 -0.012817836 4.1858963e-05 -0.0004412026
-1.916926 -3.8593254 0.69224846 -0.4330354 0.0018860023 -0.008698659
-0.60362506 8.1754189 -3.108202 -0.88212389 -0.41611421 -0.77150583
12000000 0.87760407 -0.19036713 0.0401683 -0.012690978 0.00091669185 -0.00045159808
-2.2020962 -4.1129351 0.66041762 -0.4644908 0.0025772059 -0.006360691
-0.025520802 9.1398363 -3.2116227 -0.64512241 -0.48331454 -0.74219596
13000000 0.86734641 -0.20438582 0.038660422 -0.013420345 0.00015173109 9.4593197e-05
-2.4856114 -4.2974043 0.63351786 -0.48792458 0.0024579898 -0.0061068134
0.39251471 9.8513288 -3.2372568 -0.58491945 -0.51043475 -0.7142446
14000000 0.86171997 -0.21027863 0.038568415 -0.013892164 0.00021363165 -5.2481671e-05
-2.6929197 -4.4809961 0.61115539 -0.50340807 0.0016718348 -0.0057363845
1.0535545 10.442549 -3.272995 -0.39983153 -0.55659664 -0.68407106
15000000 0.85272074 -0.2211082 0.036860324 -0.014409406 -0.00043647946 -7.8192534e-06
-3.0191298 -4.6244192 0.58467126 -0.5279693 0.00055006053 -0.0050605508
1.7430015 11.140656 -3.3014936 -0.29065657 -0.58900118 -0.65319091
16000000 0.83776677 -0.23257089 0.036292523 -0.01615962 0.00013462569 -2.6231901e-05
-3.3208609 -4.7492104 0.54820764 -0.55125463 0.0011767612 -0.0047088629
2.7293367 11.88235 -3.3277793 -0.086060166 -0.62966979 -0.63064396
17000000 0.83268738 -0.24106804 0.035882566 -0.015696606 -0.00019739564 3.9476072e-05
-3.5427611 -4.9548655 0.53517884 -0.57101166 0.0016565321 -0.0037899842
3.1245434 12.278582 -3.3114243 0.019411683 -0.64958298 -0.59565699
18000000 0.82364625 -0.25533396 0.035109617 -0.016788695 0.00021038597 -0.00071043079
-3.8175011 -5.0616927 0.50427645 -0.58629519 0.0011201592 -0.0036431768
3.8512421 12.853718 -3.2970805 0.14113772 -0.67294818 -0.56932634
19000000 0.81489897 -0.26024103 0.034203906 -0.017146271 -1.6382968e-05 -0.00023109699
-4.1012177 -5.0967808 0.47478724 -0.59431088 0.0011222047 -0.003525838
4.770083 12.950809 -3.2393103 0.25973928 -0.69298118 -0.53947413
20000000 0.80855048 -0.26828253 0.033339705 -0.017912442 -0.00018586134 -0.00013954387
-4.3283157 -5.2029266 0.45008734 -0.60470605 0.0011708282 -0.0026113866
5.4114685 13.278067 -3.2125487 0.34704578 -0.70614493 -0.52277088
21000000 0.80029541 -0.2821039 0.03308031 -0.018043172 8.2439059e-05 0.00043909872
-4.6496205 -5.3518553 0.42900938 -0.62899339 0.00077685813 -0.0023106346
6.0812054 13.92204 -3.223273 0.44137132 -0.72332376 -0.50860834
22000000 0.79359317 -0.28659558 0.032288052 -0.017701041 -0.00017147201 0.00012798625
-4.883563 -5.3516922 0.40610248 -0.63442189 0.00096974103 -0.0022498043
6.8211441 13.907313 -3.1625683 0.51844478 -0.73718631 -0.48068476
23000000 0.78133422 -0.28572905 0.031003602 -0.018235745 7.1995601e-06 -0.00056407013
-5.112287 -5.3532066 0.3745454 -0.64187586 0.0011537174 -0.0018279548
7.5691137 14.166773 -3.1229115 0.59048331 -0.75105202 -0.46883449
24000000 0.77496922 -0.29901287 0.030519491 -0.018104171 0.0001149092 -0.00025501213
-5.3732309 -5.4766126 0.35508224 -0.64999306 0.00084904989 -0.0016724239
7.9409084 14.382885 -3.0701485 0.63141012 -0.74909693 -0.45825213
25000000 0.76592183 -0.30394137 0.029802188 -0.018877786 9.7501921e-05 -0.00059287407
-5.6530442 -5.4854813 0.32813996 -0.66084677 0.0010376741 -0.00045422121
8.9057541 14.473949 -3.0207624 0.73969769 -0.7683624 -0.43043342
26000000 0.75623256 -0.31100184 0.029504607 -0.018912032 0.00021446245 -0.00023486001
-5.9416866 -5.4944034 0.30230838 -0.67200178 0.0015689731 -0.00085494033
9.5505486 14.694277 -2.9814935 0.78814232 -0.77388459 -0.42351046
27000000 0.74831921 -0.31780839 0.028656254 -0.018864581 -5.8747632e-05 6.2553685e-05
-6.1611586 -5.492681 0.27965957 -0.66912252 0.0012831417 -0.00027044507
10.278547 14.600154 -2.9096024 0.83047265 -0.77967894 -0.40955085
28000000 0.74169499 -0.32243967 0.02788835 -0.019106701 -0.00039549614 0.00032971564
-6.3994126 -5.4825292 0.2547147 -0.67500788 0.00099292037 -0.00047269315
10.844531 14.522887 -2.8381102 0.8883239 -0.78151459 -0.39668223
29000000 0.73087895 -0.32459402 0.027214032 -0.019528031 0.00023708034 -6.5265718e-05
-6.6364894 -5.3749771 0.23014234 -0.67503363 0.0017113911 2.2508093e-05
11.978689 14.770278 -2.8532596 0.96167707 -0.8016234 -0.38727516
30000000 0.72797751 -0.32922819 0.026380323 -0.019088827 0.00015873883 0.00022371882
-6.8102498 -5.4256945 0.21733758 -0.6822747 0.0011636979 4.2042055e-05
12.056086 14.60417 -2.7878232 0.95497763 -0.80069035 -0.37326336
31000000 0.71758199 -0.33626416 0.026373127 -0.019178379 0.00033381153 -6.7930843e-05
-7.1031957 -5.4107852 0.19172189 -0.68760955 0.0011325033 0.00088854384
12.836824 14.564249 -2.7242842 1.0170449 -0.8036592 -0.36071682
32000000 0.70906126 -0.34368852 0.025058325 -0.018957265 0.00023718941 0.00033857732
-7.3144794 -5.3200507 0.16628559 -0.68556392 0.0020974379 0.00089557312
13.431142 14.665691 -2.6997337 1.0354421 -0.81189728 -0.35480323
33000000 0.70366508 -0.34410429 0.024644755 -0.019769061 -0.00011904608 0.00051426102
-7.4660258 -5.2394924 0.15425956 -0.68422949 0.0013765356 0.00085732457
13.878456 14.259842 -2.6449723 1.0489466 -0.81530374 -0.34445682
34000000 0.69494307 -0.34997368 0.02451726 -0.019100983 -0.00018207764 -0.00020795083
-7.7233791 -5.2172318 0.13245364 -0.68754286 0.0016558481 0.0011404546
14.39979 14.498517 -2.6238914 1.0675303 -0.81736141 -0.34075001
35000000 0.68909991 -0.35075289 0.023921717 -0.019033495 6.2530264e-05 0.00062774861
-7.885253 -5.1142144 0.11030505 -0.68097359 0.0022156166 0.0013970383
15.035446 14.128698 -2.5464208 1.0933779 -0.81743366 -0.32651597
36000000 0.68084502 -0.35477668 0.023086205 -0.018757654 7.1749426e-05 -0.00027553769
-8.1066608 -5.0662565 0.094977751 -0.68557233 0.0017407677 0.001119202
15.514194 13.988523 -2.5016518 1.1275403 -0.82627696 -0.31676134
37000000 0.67351425 -0.35587463 0.022447176 -0.019039106 0.0002023367 0.00030306834
-8.2769308 -4.9466486 0.074317917 -0.68263853 0.0021500483 0.0014779569
16.012144 13.740923 -2.459455 1.1340004 -0.82584274 -0.31243551
38000000 0.66512388 -0.35782748 0.022095919 -0.01891784 0.00030242174 0.00011347835
-8.4409704 -4.8792567 0.055852443 -0.68234426 0.0019128439 0.0013228157
16.610146 13.521474 -2.4113777 1.1760011 -0.83085734 -0.29865518
39000000 0.65829879 -0.36195299 0.021562239 -0.018457461 -0.00056885864 -1.0313888e-05
-8.6061172 -4.8036451 0.041545928 -0.68059921 0.0023845842 0.0013776858
17.036617 13.499988 -2.3872552 1.1797945 -0.8350665 -0.29528165
40000000 0.65259016 -0.36745256 0.021010064 -0.019171786 0.00035294599 -0.00011100578
-8.781991 -4.6703682 0.022058815 -0.67831224 0.0022999712 0.0014309689
17.335184 13.319622 -2.343842 1.156191 -0.83117568 -0.29077509
41000000 0.64784658 -0.36968231 0.020257525 -0.018782837 0.00016935046 0.0001816622
-8.9127312 -4.6066685 0.005333215 -0.67435241 0.0022049535 0.0015747562
17.850145 13.120008 -2.3017809 1.177492 -0.83250892 -0.28735244
42000000 0.64034551 -0.37218595 0.020164585 -0.018685419 -9.5546566e-05 -2.4603381e-05
-9.0721703 -4.5566883 -0.0087752938 -0.67095923 0.0018341577 0.0015629199
18.363115 12.991238 -2.2741523 1.2096667 -0.84088409 -0.28234035
43000000 0.6329726 -0.37514952 0.019282252 -0.018675372 -0.0002442915 1.7257262e-05
-9.2806034 -4.4280453 -0.028118193 -0.67211092 0.0026556239 0.0018971673
18.983154 12.706499 -2.2308016 1.2366345 -0.84474921 -0.26764041
44000000 0.62866563 -0.37315971 0.019146869 -0.018685572 0.00012543768 -7.4757103e-05
-9.3090725 -4.309906 -0.03993699 -0.66075498 0.0023975414 0.0020067096
19.423445 12.296225 -2.199482 1.2481849 -0.85244751 -0.26664987
45000000 0.625489 -0.37981209 0.018673021 -0.017617069 -9.32189e-05 -0.00013611457
-9.4500685 -4.2397604 -0.052610397 -0.6549691 0.0029084119 0.0021266562
19.491816 12.112978 -2.1419055 1.2132607 -0.84387541 -0.26313138
46000000 0.61612338 -0.38215175 0.018559674 -0.018184088 0.00018183667 -0.00021965143
-9.6480808 -4.0712166 -0.070622891 -0.65828985 0.0027663698 0.0022230553
19.896282 11.975851 -2.1219923 1.2281165 -0.84441894 -0.25390211
47000000 0.61602437 -0.38122672 0.017967103 -0.01760304 7.2573748e-05 -0.00022937197
-9.693121 -4.0380774 -0.073516786 -0.65413576 0.0026603315 0.0023042406
20.020002 11.616247 -2.0970504 1.21883 -0.84782147 -0.2489064
48000000 0.60854983 -0.38205686 0.017661897 -0.01786495 0.00015570236 -6.8890033e-05
-9.8260174 -3.9288766 -0.088346511 -0.64683247 0.0027012518 0.0023804472
20.483828 11.265719 -2.0524325 1.238621 -0.85074496 -0.24123231
49000000 0.60420036 -0.38751045 0.017424971 -0.017525002 -0.00014673019 1.7950806e-06
-9.9659319 -3.8371162 -0.10078312 -0.64929366 0.0028579184 0.002353753
20.845291 11.21931 -2.0458865 1.2467763 -0.8538022 -0.23986012
50000000 0.59889656 -0.38907936 0.016957443 -0.017395642 0.00027391315 -0.00032589774
-10.070572 -3.7472045 -0.10949425 -0.64102274 0.0031642108 0.0020236298
20.921848 11.02707 -2.0114849 1.2154561 -0.8519944 -0.23824057
51000000 0.593337 -0.3941496 0.016671287 -0.017009055 8.3528394e-05 -5.5032688e-05
-10.204204 -3.5712788 -0.12953262 -0.63848352 0.0025271364 0.0023532484
21.544262 10.748543 -1.978649 1.232643 -0.85415846 -0.23532367
52000000 0.59003174 -0.39138737 0.016064253 -0.016830012 0.00010843885 -4.8211648e-05
-10.280262 -3.5095785 -0.13448335 -0.63166475 0.0032474888 0.0024791195
21.683851 10.420015 -1.9520218 1.2291194 -0.85469043 -0.22859633
53000000 0.58546358 -0.39537144 0.015938355 -0.016785426 -7.7505465e-05 -1.8078244e-06
-10.414572 -3.3740549 -0.14770299 -0.62908852 0.0029308861 0.0029131612
22.020931 10.132627 -1.9128512 1.2340896 -0.85672688 -0.22139069
54000000 0.58163589 -0.39695787 0.016148854 -0.01692136 6.9410191e-05 -6.1130064e-05
-10.498886 -3.2979348 -0.15800297 -0.62560809 0.0031939042 0.0026512886
22.252424 10.108305 -1.9097733 1.2273893 -0.8586759 -0.22455193
55000000 0.57559019 -0.39516848 0.015534573 -0.016409209 -0.00024186575 -0.00029119739
-10.490953 -3.1367886 -0.16862339 -0.61614549 0.0030432073 0.0025608735
22.619595 9.7488613 -1.8822976 1.2335289 -0.86373127 -0.22014086
56000000 0.5712266 -0.40252471 0.015344378 -0.016334066 -2.2636414e-05 0.00011361139
-10.646238 -3.0325015 -0.17996225 -0.61169761 0.002621172 0.0027280867
22.689144 9.2482204 -1.835857 1.2214668 -0.86180377 -0.21356255
57000000 0.57050782 -0.40384054 0.015263219 -0.015916076 0.00035737664 0.00010551935
-10.706192 -2.9561381 -0.18345304 -0.61100447 0.0035345599 0.0024469495
22.780497 8.9750843 -1.8207849 1.2173575 -0.85817462 -0.207551
58000000 0.56473237 -0.40854943 0.0148904 -0.016131541 0.00019753393 -0.00012711596
-10.810445 -2.8471456 -0.19616155 -0.61019975 0.0033036531 0.0027932522
23.214685 9.0114641 -1.8131515 1.2348204 -0.86648387 -0.20920491
59000000 0.55879492 -0.40670168 0.014474442 -0.015482667 0.00030850733 7.5183534e-06
-10.795698 -2.7248762 -0.20063251 -0.59595394 0.0039234255 0.0024619082
23.465599 8.2104673 -1.7630057 1.2209159 -0.86254048 -0.19880113
60000000 0.55511385 -0.40419814 0.014173389 -0.01544 -4.0177863e-05 0.00034037407
-10.843726 -2.5972362 -0.21049196 -0.59262878 0.0039364658 0.0026307246
23.535105 8.2056379 -1.7611321 1.2085285 -0.86731607 -0.20159724
61000000 0.55223227 -0.40934321 0.014046736 -0.015442912 -0.00024493283 0.00026028059
-10.9326 -2.5897875 -0.21770671 -0.59121203 0.0032533128 0.0029220779
23.68647 7.8251433 -1.7196155 1.2292576 -0.86665565 -0.19256163
62000000 0.55025905 -0.41518676 0.01412535 -0.015472969 0.00016208056 7.9503494e-05
-11.077676 -2.4485788 -0.2280409 -0.59067094 0.0039704223 0.0027986234
23.943842 7.8525314 -1.7238787 1.2107952 -0.86735499 -0.19886976
63000000 0.54420799 -0.41373712 0.013707582 -0.015148025 -0.0002278513 0.00019527966
-11.058947 -2.2307189 -0.23660079 -0.58114731 0.0037749847 0.0033462779
24.095133 7.4121923 -1.6959256 1.1930701 -0.86504519 -0.19462118
64000000 0.54178435 -0.41590339 0.013366472 -0.014872766 -0.00021083714 -0.00057276443
-11.157171 -2.2279794 -0.24248272 -0.57817173 0.0038930154 0.0028503335
24.162727 7.1251001 -1.6649579 1.2068661 -0.86679125 -0.18350205
65000000 0.53730643 -0.41983944 0.013068918 -0.0147672 4.3730066e-05 7.0622606e-05
-11.183939 -2.1300764 -0.24692674 -0.57281208 0.0039070053 0.0031371149
24.394272 6.971405 -1.6675795 1.1923673 -0.87332195 -0.18838298
66000000 0.53349078 -0.4228071 0.013170153 -0.014693089 0.000146103 -0.00024177632
-11.285486 -1.9992228 -0.2582401 -0.57481337 0.0039813574 0.0030152956
24.535908 6.7822151 -1.6478232 1.2014165 -0.86890894 -0.18432702
67000000 0.52818805 -0.42122173 0.012942431 -0.014313887 0.00012490223 0.00031339534
-11.27285 -1.8484366 -0.2599389 -0.5672332 0.0038544876 0.0031687943
24.701973 6.5101271 -1.6433454 1.1766099 -0.87095821 -0.1838012
68000000 0.52429092 -0.42658359 0.012880557 -0.014335612 1.6292164e-05 0.0001528814
-11.359862 -1.7244058 -0.27099937 -0.5612942 0.0034592166 0.0032310863
24.946299 6.2662954 -1.6143087 1.1808147 -0.87258768 -0.18052822
69000000 0.52085185 -0.42603445 0.012098191 -0.014568293 0.00036239612 0.00015547822
-11.367151 -1.6426857 -0.27889663 -0.55549312 0.0037709069 0.0030553453
25.071831 5.8988233 -1.586761 1.1898394 -0.8728233 -0.17559919
70000000 0.51901972 -0.4274686 0.012361613 -0.014304571 0.00013714752 -7.7818833e-05
-11.416311 -1.561285 -0.2834332 -0.55525124 0.0039825006 0.003081803
25.00445 5.6427541 -1.5808465 1.1835577 -0.87358916 -0.17402807
71000000 0.51776814 -0.43086502 0.012020018 -0.013572215 0.00021677735 -0.00029620857
-11.465035 -1.4946446 -0.28682214 -0.54974526 0.0039498662 0.0031079815
25.143831 5.2929387 -1.5562384 1.1776989 -0.87521654 -0.16669238
72000000 0.51097453 -0.43027142 0.01215628 -0.013729054 0.00027990952 6.3531013e-05
-11.448533 -1.3254108 -0.29540491 -0.54105783 0.0039475709 0.0032806778
25.302189 5.037075 -1.5365964 1.1674621 -0.87378508 -0.16754219
73000000 0.50637704 -0.43388838 0.011723818 -0.013866849 -0.00031258306 1.4221194e-05
-11.549746 -1.2092223 -0.30239636 -0.54119396 0.00408368 0.0033993775
25.376186 4.7166471 -1.5190843 1.1644269 -0.87211728 -0.16242322
74000000 0.50532979 -0.43494207 0.011774436 -0.013654537 0.00051305705 -4.5014851e-05
-11.543936 -1.1277552 -0.30534276 -0.53544927 0.0041166157 0.0029667302
25.442707 4.579196 -1.5104029 1.1546578 -0.87371314 -0.16059238
75000000 0.50285411 -0.4374356 0.011728119 -0.013462897 0.00040737994 0.00012449485
-11.564954 -1.1087852 -0.3040033 -0.53451461 0.004214074 0.0036990964
25.380833 4.4951305 -1.5164151 1.1398301 -0.87167537 -0.16362157
76000000 0.49888593 -0.4361366 0.011468622 -0.012883806 -0.00011638967 9.0548114e-05
-11.586431 -0.94220734 -0.31673816 -0.52734023 0.0043037832 0.0032891929
25.592127 4.0086784 -1.4808609 1.1562521 -0.87514699 -0.15769798
77000000 0.49456143 -0.43729758 0.011419719 -0.012658938 -0.00017476466 -8.5689389e-05
-11.583197 -0.82680607 -0.31639624 -0.52172208 0.0043764096 0.0031092265
25.446606 3.888732 -1.4770271 1.1179404 -0.8719666 -0.16400224
78000000 0.49213862 -0.44569734 0.010846027 -0.013035819 0.00031923773 0.00025319256
-11.639948 -0.73463869 -0.32776508 -0.51920509 0.0045009209 0.0034252398
26.009443 3.6080456 -1.4661521 1.1477321 -0.87269533 -0.16052669
79000000 0.48860818 -0.44167238 0.010836872 -0.012602778 0.00028465156 -0.00012134683
-11.647374 -0.64639378 -0.32948944 -0.516195 0.00406837 0.0037434387
25.92935 3.5254154 -1.4641286 1.1324722 -0.87586594 -0.15859777
80000000 0.48566464 -0.44418994 0.011189876 -0.01260674 3.1442869e-05 0.00024347889
-11.710805 -0.51742601 -0.33556867 -0.51543486 0.0044540125 0.0036174129
25.787895 3.1774721 -1.4414504 1.1278669 -0.87553918 -0.15511599
81000000 0.48332912 -0.44442663 0.010474358 -0.012508909 -2.1957598e-05 -0.00014857374
-11.667512 -0.42078972 -0.34091035 -0.50801384 0.004249034 0.0029106184
25.99724 3.0024815 -1.4292629 1.1202984 -0.87749487 -0.15521301
82000000 0.48076153 -0.44788283 0.010549452 -0.011901781 0.00019918427 6.9093439e-05
-11.703295 -0.39081144 -0.340496 -0.5060491 0.0046411501 0.0034271099
25.941002 2.7223349 -1.4214458 1.1122831 -0.87659293 -0.15200913
83000000 0.47736472 -0.45024925 0.010746128 -0.012245118 -7.593575e-06 0.0001529047
-11.705485 -0.23107052 -0.34973627 -0.50145763 0.0042445567 0.0034012878
26.08548 2.6072483 -1.4052451 1.1166302 -0.87539804 -0.14706528
84000000 0.47583359 -0.44944361 0.010653085 -0.011838718 0.00035465727 -0.00024633951
-11.688395 -0.23072982 -0.34693477 -0.49446809 0.0045430842 0.0031384199
26.055775 2.1242228 -1.3972702 1.1006463 -0.87896401 -0.14895618
85000000 0.47106874 -0.45553714 0.010508401 -0.011500192 0.00025633327 0.00019424064
-11.760366 -0.05862999 -0.35609624 -0.49347907 0.0049400949 0.0034077372
26.317364 2.0004563 -1.3931912 1.1041863 -0.88181198 -0.14771305
86000000 0.47093987 -0.45577952 0.01022891 -0.011482152 -0.00013417806 0.00019597827
-11.780503 -0.052906275 -0.35625282 -0.49401528 0.004251129 0.0036368
25.99044 1.7877951 -1.3826061 1.0960464 -0.8766318 -0.14086945
87000000 0.46842667 -0.45758021 0.010273389 -0.011648702 -0.00030526746 8.8680979e-05
-11.794031 0.062424064 -0.36374527 -0.48916268 0.0044824472 0.0035053557
26.197844 1.5831728 -1.372658 1.0938911 -0.88134003 -0.14156827
88000000 0.46237168 -0.46127898 0.010239793 -0.01136566 0.00014406035 -0.00021685404
-11.759527 0.20464182 -0.36728382 -0.48192158 0.0044274349 0.0034293989
26.093609 1.248765 -1.3408176 1.0752245 -0.87419146 -0.13883643
89000000 0.45904762 -0.45832619 0.0094424821 -0.011456104 -0.00024376542 -9.0472662e-05
-11.707445 0.30952877 -0.37041172 -0.47689211 0.0045093042 0.0036132245
26.564991 0.96903443 -1.3543967 1.0902294 -0.88372409 -0.14378199
90000000 0.45476457 -0.4623808 0.010085645 -0.011425774 0.00021748767 0.00038990896
-11.748799 0.36853719 -0.37308028 -0.47829282 0.0048835934 0.0037733158
26.22776 0.95267725 -1.3456663 1.0744562 -0.87575579 -0.14250138
91000000 0.45159712 -0.46561605 0.0098622162 -0.010696488 0.00012727492 0.00019050764
-11.790631 0.4634124 -0.37741181 -0.47320575 0.0048429556 0.0035110575
26.30665 0.7400372 -1.3341701 1.0605702 -0.87668866 -0.14120214
92000000 0.45063189 -0.46692425 0.0099049099 -0.010757107 0.00011456158 -0.00017052809
-11.774255 0.51698315 -0.37846407 -0.46972021 0.0047979509 0.0033390536
26.29916 0.45887828 -1.3220633 1.0562359 -0.87739909 -0.14068574
93000000 0.44913185 -0.46935347 0.0096074138 -0.010621975 0.00018552202 0.00024410911
-11.824198 0.59958148 -0.38199329 -0.4686805 0.0051850858 0.0036678519
26.262768 0.16603827 -1.3076375 1.06106 -0.8791362 -0.13312386
94000000 0.4475953 -0.47181967 0.0095518837 -0.010542292 0.00015801114 -9.3269104e-05
-11.769225 0.69241333 -0.3865076 -0.46377635 0.0049111228 0.0037924866
26.561821 0.038105965 -1.3125377 1.0660011 -0.88448453 -0.13783947
95000000 0.43988597 -0.47012791 0.0094167357 -0.010019835 7.4049851e-05 0.00019191648
-11.723783 0.77762461 -0.38745302 -0.45747703 0.0049023544 0.0037036855
26.36216 -0.31477308 -1.2921507 1.0478432 -0.8814376 -0.13195139
96000000 0.43919018 -0.47592118 0.0096101146 -0.010210485 9.5260868e-05 0.00012863267
-11.786504 0.87421179 -0.39174384 -0.45840234 0.0047301236 0.0037285325
26.474861 -0.37732744 -1.2959948 1.0489082 -0.88439769 -0.13353264
