!Keysight Technologies,N5244B,MY57181157,A.18.40.03
!Date: Wednesday, September 10, 2025 10:49:12
!Correction: S11(C  3-Port  ) 
!S12(C  3-Port  ) 
!S13(C  3-Port  ) 
!S21(C  3-Port  ) 
!S22(C  3-Port  ) 
!S23(C  3-Port  ) 
!S31(C  3-Port  ) 
!S32(C  3-Port  ) 
!S33(C  3-Port  ) 
!S3P File: Measurements: <S11,S12,S13>,
!<S21,S22,S23>,
!<S31,S32,S33>:
# Hz S  RI   R 50
10000000 0.88603616 -0.16740918 0.040995847 -0.010999398 5.6238787e-06 -0.0004449235
-1.7893267 -3.8004336 0.7127434 -0.39735585 0.0049577006 -0.0090871211
-1.5989733 7.9866338 -3.0572102 -1.2759503 -0.2318854 -0.83382142
11000000 0.87630492 -0.18176946 0.041043289 -0.01275742 -0.00018942935 -0.00083948422
-2.0335228 -4.0919433 0.69541252 -0.42629772 0.004655675 -0.0086112693
-1.2046165 9.1687832 -3.2397625 -1.1386039 -0.30077434 -0.81446159
12000000 0.87196851 -0.19593325 0.039656065 -0.012383493 0.00033535776 -0.0002313359
-2.3365703 -4.3617682 0.66392535 -0.45972648 0.002917358 -0.0080830809
-0.61627531 10.356215 -3.3824198 -0.90143037 -0.37211841 -0.7938273
13000000 0.86139464 -0.2112022 0.038773954 -0.013404541 0.0004351708 -0.00023940494
-2.6364565 -4.5598564 0.63777131 -0.48212805 0.0028294707 -0.0068886196
-0.15811157 11.212872 -3.4259915 -0.82812023 -0.40722978 -0.76557374
14000000 0.85467154 -0.21646795 0.03793956 -0.013660414 -0.00018461019 -0.0002225466
-2.8548136 -4.755331 0.61425334 -0.49902418 0.0024307019 -0.0065341936
0.57232904 11.973269 -3.4885061 -0.63091159 -0.45972723 -0.74061441
15000000 0.84690559 -0.22868556 0.037359811 -0.014289004 -6.0392005e-05 0.00013956797
-3.2010584 -4.9125757 0.58836257 -0.52089131 0.0013804091 -0.0060492307
1.3434052 12.843836 -3.5384521 -0.51201677 -0.49673468 -0.71046042
16000000 0.83128017 -0.23877445 0.036632586 -0.015542842 -0.00049597421 -0.00011513468
-3.5195308 -5.0488954 0.55195343 -0.54498118 0.001571421 -0.0059707519
2.4441328 13.796951 -3.5893281 -0.28764665 -0.54360068 -0.69007164
17000000 0.82614589 -0.24912854 0.03635332 -0.016052678 0.00018445094 4.0048049e-05
-3.7552392 -5.2672567 0.53942043 -0.56529474 0.001859756 -0.0050514061
2.9208755 14.303731 -3.5890365 -0.16476822 -0.56944543 -0.6556505
18000000 0.81669092 -0.26239866 0.035371725 -0.016439961 -0.00040330505 6.41433e-05
-4.0457401 -5.3806734 0.50883991 -0.57991505 0.00055122725 -0.004319374
3.7557635 15.035984 -3.587935 -0.026069283 -0.59783226 -0.62903082
19000000 0.80673569 -0.26855719 0.034226786 -0.017232487 0.00021674923 7.9089528e-05
-4.3425231 -5.4241605 0.47910556 -0.58778399 0.0010050766 -0.0032724864
4.8456173 15.22918 -3.5390911 0.11171174 -0.6242187 -0.59954327
20000000 0.7995441 -0.27552611 0.033814531 -0.017788947 -0.0004611577 -0.00055491319
-4.589344 -5.5370665 0.45512137 -0.59920585 0.00095835479 -0.0034493525
5.6165094 15.649332 -3.5178862 0.21478462 -0.64047056 -0.58037478
21000000 0.79052734 -0.28980169 0.033354968 -0.017972616 6.8168607e-05 -0.00056812173
-4.9287844 -5.6982455 0.43383572 -0.62295794 0.0012275151 -0.002638102
6.3795838 16.434734 -3.5369196 0.32080245 -0.66030777 -0.56616515
22000000 0.78411961 -0.29525295 0.032654949 -0.01836694 0.00024578604 -0.00014311078
-5.1761503 -5.7007046 0.41126978 -0.62701529 0.00081224967 -0.0021472261
7.2765217 16.481565 -3.4834735 0.41460085 -0.67891586 -0.5385195
23000000 0.77168596 -0.29530665 0.031202484 -0.018500809 0.00035311602 8.1216931e-06
-5.4214587 -5.706841 0.3801046 -0.63484794 0.0010709414 -0.0018817032
8.155982 16.828974 -3.4451659 0.49961329 -0.6945622 -0.52571809
24000000 0.7653389 -0.30834898 0.031313043 -0.017864987 0.00050690357 -0.0001292801
-5.6989655 -5.8386145 0.36254853 -0.64274204 0.0010841079 -0.0015395647
8.6165886 17.089972 -3.3903115 0.54965627 -0.6941241 -0.51357925
25000000 0.75569826 -0.31242734 0.030756736 -0.018819388 0.0001923394 -0.00010568222
-5.9979119 -5.8493338 0.33444664 -0.65348721 0.0011515326 -0.0011364111
9.7673321 17.260616 -3.34677 0.67552119 -0.71724582 -0.48595637
26000000 0.74567121 -0.3198714 0.029859988 -0.018696094 7.0452472e-05 9.0815585e-05
-6.3055081 -5.8626294 0.30856249 -0.66466618 0.0018962983 -0.0011641132
10.541871 17.543968 -3.3043649 0.73565733 -0.72473502 -0.47601283
27000000 0.73643088 -0.32606009 0.029008213 -0.019057794 1.5963669e-06 -0.00023894515
-6.5423193 -5.8584585 0.2859683 -0.66223413 0.0016684067 -0.0001612889
11.432694 17.460197 -3.2296226 0.79044354 -0.73345786 -0.4605664
28000000 0.72975415 -0.3314935 0.02807544 -0.019030157 0.00032902538 0.00016811769
-6.7955184 -5.8535171 0.26099774 -0.66760874 0.0014501923 5.0578157e-05
12.128415 17.399498 -3.1546152 0.86205065 -0.73718864 -0.44625491
29000000 0.71850902 -0.33302429 0.027380712 -0.019426135 0.00026571695 -0.00011082648
-7.0497351 -5.7397499 0.23657447 -0.6684348 0.0019701961 -0.00065854675
13.448762 17.746227 -3.1775503 0.94062746 -0.75725853 -0.43898043
30000000 0.71522391 -0.33696976 0.027027342 -0.018370517 -0.00026777084 -0.00021662185
-7.2369175 -5.7939157 0.22452474 -0.67522407 0.0016309478 0.00013582404
13.58558 17.535435 -3.1045485 0.94003546 -0.75756353 -0.42182899
31000000 0.70417368 -0.34488899 0.026505925 -0.019247795 0.00014642913 0.00015544619
-7.5478239 -5.7768636 0.19903255 -0.68105525 0.0015352961 0.00037760346
14.529083 17.514696 -3.0374918 1.015613 -0.76353002 -0.40893555
32000000 0.69537717 -0.35197955 0.025641762 -0.019508427 0.00011732357 -8.4631196e-05
-7.773294 -5.6798372 0.17236421 -0.67851985 0.0016072951 0.00013562896
15.237401 17.640041 -3.0109046 1.0388293 -0.77203071 -0.40085962
33000000 0.68914539 -0.35157311 0.02498455 -0.019220328 0.00010280537 -0.00022322917
-7.938025 -5.5979733 0.16193889 -0.67712367 0.0016493006 0.00015130892
15.80204 17.181282 -2.9517431 1.0568799 -0.77657425 -0.38954318
34000000 0.68071312 -0.35867482 0.024761593 -0.019199379 0.00019526944 -0.00027255877
-8.211174 -5.5739594 0.14037892 -0.67975324 0.001807993 0.00065707491
16.415163 17.46413 -2.927686 1.0799555 -0.77936137 -0.38521761
35000000 0.67439938 -0.35806513 0.02360894 -0.019277325 6.0972096e-05 3.4456065e-05
-8.3855772 -5.4639721 0.11838329 -0.67351443 0.0016006689 0.00085443346
17.199148 17.045876 -2.8434551 1.1132994 -0.78042698 -0.36990103
36000000 0.66608775 -0.36273295 0.023543198 -0.019214928 2.4429271e-05 -0.00023820013
-8.6196833 -5.4153132 0.10289493 -0.67785555 0.0015977009 0.0010807699
17.771357 16.901375 -2.7971468 1.1525576 -0.78989476 -0.36004815
37000000 0.65878642 -0.36365494 0.023030397 -0.018831624 8.6819928e-05 0.00019982419
-8.8012047 -5.2876978 0.082854092 -0.67508984 0.0019634482 0.00097947265
18.378012 16.626318 -2.7532406 1.1620827 -0.79003936 -0.35423332
38000000 0.6498723 -0.36575913 0.022320744 -0.018592916 0.00024551511 0.00020155398
-8.9795656 -5.2136045 0.064368799 -0.67475325 0.002278744 0.001074204
19.132647 16.385349 -2.7053776 1.2127147 -0.79635644 -0.34104624
39000000 0.64145803 -0.3683832 0.021877095 -0.019015145 -6.527653e-05 0.00012657499
-9.1368608 -5.137907 0.051130667 -0.67275196 0.0020288709 0.0011409791
19.605286 16.347876 -2.6776614 1.2219689 -0.80202925 -0.3364549
40000000 0.63640523 -0.37383971 0.021127153 -0.018755911 2.5079091e-05 -0.00034187111
-9.3362026 -5.0088801 0.031689256 -0.67104918 0.0021855833 0.00163668
19.994373 16.159523 -2.6282387 1.1991539 -0.79896075 -0.33081275
41000000 0.63189703 -0.37655285 0.021167422 -0.018823549 1.2441431e-05 -2.8213062e-05
-9.4891262 -4.9372568 0.014768898 -0.66705549 0.0021248509 0.0015814389
20.647011 15.926881 -2.5820332 1.2259523 -0.80001682 -0.3260029
42000000 0.62371498 -0.37900248 0.020431515 -0.018620467 0.00010201937 0.00012837189
-9.6570826 -4.8821325 0.00088551641 -0.6638037 0.0025013422 0.001678997
21.259937 15.782469 -2.5526443 1.2635928 -0.8097437 -0.32053334
43000000 0.6158576 -0.38195032 0.020074721 -0.018944271 4.13136e-05 0.00040882721
-9.8812418 -4.7483006 -0.01876235 -0.66499138 0.0026310871 0.0013838713
22.020271 15.468565 -2.5069845 1.2966139 -0.81464398 -0.30630475
44000000 0.61235195 -0.37921217 0.019368587 -0.018464355 -0.00014729187 2.077852e-05
-9.9155025 -4.6266532 -0.030386627 -0.65391302 0.0026401319 0.0019867725
22.561447 15.002908 -2.4730978 1.3116374 -0.82200885 -0.30469573
45000000 0.60848254 -0.38585076 0.019250548 -0.018289598 0.00018455947 -3.244909e-05
-10.070445 -4.546277 -0.042962641 -0.64857781 0.002673147 0.0017487215
22.672209 14.748818 -2.4052114 1.2774998 -0.81411374 -0.29926279
46000000 0.59898329 -0.38801569 0.018956566 -0.018366056 3.6225596e-05 -0.00015749122
-10.278644 -4.3684611 -0.060933918 -0.65136421 0.0028276048 0.0016427777
23.160595 14.593678 -2.3849277 1.2947671 -0.81531501 -0.28971091
47000000 0.59841889 -0.38735569 0.018550834 -0.017979085 0.00021556219 -2.4027591e-05
-10.332214 -4.3314323 -0.064394325 -0.64737666 0.0032279615 0.0018620512
23.334225 14.164879 -2.3572037 1.2873113 -0.8198868 -0.28381583
48000000 0.59095854 -0.38802725 0.018022109 -0.017919313 3.428313e-05 -4.3294294e-05
-10.473503 -4.2140017 -0.078784734 -0.64015901 0.0028043133 0.0022543685
23.90061 13.75406 -2.3078551 1.3105745 -0.82264423 -0.27587467
49000000 0.58643353 -0.39267451 0.017699281 -0.01786725 0.00025852729 -9.8621065e-05
-10.623672 -4.1163492 -0.090953797 -0.64223081 0.0030635186 0.001902376
24.334534 13.697729 -2.3008707 1.319523 -0.82620668 -0.27432838
50000000 0.58103335 -0.39432546 0.017443947 -0.017679922 -8.1754697e-05 0.00016558573
-10.73612 -4.0196514 -0.09988527 -0.63409227 0.0029723104 0.0023046341
24.438396 13.455097 -2.2602367 1.2879674 -0.82417804 -0.27077475
51000000 0.57491893 -0.39921492 0.016822143 -0.017482571 0.00017132811 -0.00010490038
-10.881376 -3.830884 -0.12008184 -0.63186699 0.0029516886 0.0021991301
25.191475 13.129538 -2.2257018 1.3084453 -0.8264448 -0.26749179
52000000 0.57184559 -0.39644665 0.01687832 -0.017136078 2.864467e-05 -2.6586677e-05
-10.961847 -3.7656426 -0.12377476 -0.6247977 0.0034084292 0.002023377
25.369358 12.739522 -2.1955492 1.3049693 -0.82824171 -0.26086462
53000000 0.56664914 -0.40028584 0.016466536 -0.017010365 0.00020828379 -1.8560429e-05
-11.105544 -3.6194463 -0.13801587 -0.62206107 0.0032137558 0.0021369634
25.782738 12.399565 -2.1524618 1.3130549 -0.83035576 -0.25316143
54000000 0.5632636 -0.40141502 0.015842738 -0.016784472 0.00016570935 -0.00035676229
-11.195795 -3.5367417 -0.14750209 -0.61847615 0.0035405152 0.0026127344
26.05751 12.359325 -2.1480026 1.3064883 -0.8322733 -0.25550246
55000000 0.55664718 -0.39992672 0.015714802 -0.016955335 0.00012523614 9.8477758e-05
-11.189041 -3.3636069 -0.15832099 -0.60954541 0.0033631376 0.0025990866
26.504772 11.931761 -2.1190548 1.3127589 -0.83701521 -0.25146973
56000000 0.55208403 -0.4066022 0.015417529 -0.016408991 0.00026904407 -0.00013675464
-11.353808 -3.2519493 -0.1697247 -0.60523582 0.0035370467 0.0027383729
26.606834 11.328985 -2.0660477 1.301883 -0.83583623 -0.24385062
57000000 0.55117023 -0.40791172 0.015639374 -0.016453424 2.2918939e-06 0.00026457163
-11.421272 -3.170836 -0.17271242 -0.60411537 0.0036372938 0.00278615
26.740757 11.004104 -2.0502391 1.2994142 -0.83318496 -0.23733248
58000000 0.54554451 -0.41257432 0.015491097 -0.016921066 0.00027335683 -1.8347619e-05
-11.534159 -3.055479 -0.18534259 -0.60284466 0.003928253 0.0025458429
27.251789 11.054657 -2.0429943 1.3177738 -0.84129941 -0.23883139
59000000 0.53921044 -0.40964139 0.014474561 -0.015688773 9.0357877e-05 5.6567827e-05
-11.515555 -2.9238937 -0.19027069 -0.58914256 0.003786165 0.0029572686
27.566109 10.101648 -1.9872433 1.3049864 -0.8384347 -0.22756588
60000000 0.53593296 -0.40731183 0.014720229 -0.015806781 0.00015736651 -5.1083734e-06
-11.569752 -2.7890139 -0.1996675 -0.58550972 0.0035932176 0.0027542305
27.65535 10.089876 -1.9838818 1.2910891 -0.84317154 -0.2303161
61000000 0.5326941 -0.41297391 0.014387704 -0.015638292 -0.00023612301 4.0672941e-05
-11.664957 -2.7761023 -0.20717059 -0.58453816 0.0038134069 0.0027655722
27.853951 9.6275063 -1.9385675 1.3154101 -0.84276837 -0.22112878
62000000 0.53014004 -0.41761476 0.014355605 -0.015785428 1.9514373e-05 0.00014956995
-11.819681 -2.6252844 -0.2175813 -0.58327579 0.003545309 0.002717712
28.152281 9.6509905 -1.9416658 1.2954056 -0.84308028 -0.22722991
63000000 0.52436519 -0.41636243 0.014052609 -0.01565499 0.00020315028 0.00013252774
-11.801457 -2.3959088 -0.22570997 -0.57422435 0.0041295085 0.0029832521
28.344582 9.130724 -1.911239 1.276752 -0.84119064 -0.22210041
64000000 0.52206492 -0.41879448 0.013527814 -0.015295184 -7.4654108e-06 -0.00010085982
-11.907399 -2.3916869 -0.23181343 -0.57153922 0.0041608415 0.0026280279
28.443377 8.7876835 -1.8777049 1.2933171 -0.84355116 -0.21155784
65000000 0.517685 -0.42194468 0.013419716 -0.015177811 0.00019758608 -0.00017359175
-11.934275 -2.2863162 -0.23576522 -0.56585169 0.0038095491 0.0031004334
28.710249 8.5982418 -1.8791673 1.2764119 -0.84959513 -0.21569476
66000000 0.51330853 -0.42463908 0.01324651 -0.015479937 0.00019507032 -1.5946331e-05
-12.042048 -2.1467409 -0.24680939 -0.56734604 0.003869666 0.003362942
28.886652 8.3700781 -1.8581897 1.2877979 -0.84552342 -0.21084039
67000000 0.50843215 -0.42300862 0.013115667 -0.014845458 -8.2778883e-05 8.0729078e-05
-12.031633 -1.9852712 -0.24893816 -0.56009686 0.0041743214 0.0030519641
29.091112 8.0431728 -1.8524873 1.2598379 -0.84759724 -0.2101862
68000000 0.50437868 -0.42807412 0.012815885 -0.014666772 5.2802228e-05 -3.2234228e-05
-12.122558 -1.8537946 -0.26001668 -0.55398285 0.0040573473 0.0032593329
29.383127 7.750638 -1.8204377 1.2666798 -0.84914792 -0.20690906
69000000 0.50091207 -0.42727891 0.012792168 -0.014316606 5.1047711e-05 0.00031922082
-12.13283 -1.7660723 -0.26750767 -0.5481022 0.0038923835 0.0028764282
29.548559 7.316597 -1.7908769 1.2767313 -0.84938657 -0.20166138
70000000 0.49908012 -0.42814431 0.012659178 -0.014771301 1.5658738e-05 1.8084496e-05
-12.184141 -1.6784861 -0.27168462 -0.54837203 0.0044077639 0.0031422409
29.474127 7.0016189 -1.7840943 1.2700986 -0.85075527 -0.19972497
71000000 0.49797374 -0.43212515 0.012599153 -0.014168555 9.798292e-05 9.3640112e-05
-12.23657 -1.6080861 -0.27475172 -0.54268831 0.0046944055 0.0033367511
29.649387 6.5890989 -1.7572594 1.2648445 -0.85298556 -0.19230738
72000000 0.49063554 -0.43090227 0.01203074 -0.014317498 -6.1476836e-05 0.00018509969
-12.218082 -1.4283924 -0.2838248 -0.53389519 0.0042499015 0.0032068754
29.835859 6.2813368 -1.7353139 1.2540329 -0.85111547 -0.19258067
73000000 0.4865151 -0.43448353 0.01213691 -0.014008665 0.00015651945 -0.00016798811
-12.327685 -1.3067112 -0.29029542 -0.53399241 0.0045186095 0.0030534689
29.936535 5.905755 -1.7168268 1.2509899 -0.85056239 -0.18726441
74000000 0.48556778 -0.43535841 0.012063449 -0.013349949 -0.00018947132 -0.00018212898
-12.325195 -1.2171903 -0.29353932 -0.52769202 0.0045101652 0.003153905
30.028919 5.7334757 -1.7063799 1.2409374 -0.85133004 -0.18499634
75000000 0.48268485 -0.4375076 0.011839638 -0.013628036 0.00021413476 0.00016240604
-12.346052 -1.1943994 -0.29231009 -0.52724516 0.0045928089 0.0036498513
29.952801 5.613307 -1.7116854 1.224694 -0.84948534 -0.1876038
76000000 0.47857586 -0.43599802 0.011493386 -0.013393871 4.6130408e-05 -0.00020521961
-12.368971 -1.0178008 -0.30459026 -0.52029717 0.0044928198 0.0031476491
30.210796 5.0426626 -1.674799 1.2440602 -0.853935 -0.1814706
77000000 0.4749864 -0.43742821 0.011749461 -0.013295187 0.00012583437 0.00025777493
-12.36899 -0.89466572 -0.30431756 -0.51485378 0.0048657777 0.0035514948
30.046608 4.8850813 -1.6690538 1.2023968 -0.85015285 -0.18749812
78000000 0.4719663 -0.44507232 0.011796908 -0.013360126 0.00022116583 0.00011083286
-12.425972 -0.7942605 -0.31559071 -0.51215649 0.0046187849 0.003689093
30.708374 4.5539217 -1.6584785 1.2351338 -0.85089809 -0.18414915
79000000 0.46860644 -0.44129574 0.011433875 -0.01341407 0.00019304286 -0.00020475357
-12.433868 -0.70159626 -0.31691346 -0.50909656 0.0045841597 0.0033232328
30.612385 4.4542713 -1.6552463 1.2181935 -0.8538692 -0.18145412
80000000 0.4653016 -0.44371614 0.011395071 -0.013044033 0.00017966278 0.00026173159
-12.501677 -0.56359911 -0.32342008 -0.507999 0.0050712326 0.0038352422
30.453945 4.0333929 -1.6295975 1.2134833 -0.85424697 -0.17786486
81000000 0.46335515 -0.44318616 0.010750828 -0.012890687 -0.00018401489 0.0002404504
-12.460138 -0.4604187 -0.32789361 -0.50006807 0.0047663432 0.0036698394
30.714855 3.8241024 -1.6168059 1.2052891 -0.85569376 -0.1781157
82000000 0.46106356 -0.44711715 0.011163006 -0.012719376 0.00039394893 0.00029413961
-12.496718 -0.43030453 -0.32803646 -0.49875322 0.0049610492 0.0038368269
30.650278 3.4883842 -1.6082194 1.197459 -0.85574955 -0.17491123
83000000 0.45725006 -0.4490788 0.011192395 -0.012687021 -3.333496e-05 -0.00022000761
-12.501307 -0.26058054 -0.33657846 -0.49457681 0.0048330026 0.0033502309
30.830046 3.3545399 -1.5909873 1.2032076 -0.85461766 -0.16887824
84000000 0.45634508 -0.44798756 0.010892016 -0.012551786 0.00015562684 2.7378141e-05
-12.482857 -0.25620341 -0.33427161 -0.48765367 0.0046869703 0.0035158959
30.79801 2.7671919 -1.5817158 1.1856604 -0.85786957 -0.1713931
85000000 0.45082599 -0.45351914 0.010778556 -0.01243208 0.0001226318 1.3418917e-05
-12.557386 -0.074733496 -0.34332427 -0.4864729 0.0047805579 0.0034893262
31.099405 2.6230497 -1.5768014 1.1886687 -0.85998535 -0.16904144
86000000 0.4514178 -0.45403972 0.01074555 -0.012325711 4.3396682e-05 6.698395e-05
-12.581089 -0.066490412 -0.34345418 -0.48669785 0.0048200889 0.003704818
30.730211 2.3578634 -1.5653293 1.1816854 -0.85621858 -0.16261382
87000000 0.44813767 -0.45570907 0.010597987 -0.011984843 9.0446214e-05 -4.1672869e-05
-12.594994 0.056800008 -0.35077992 -0.48166874 0.0048161019 0.0036002705
30.969179 2.1138029 -1.5542574 1.1795821 -0.86088306 -0.16308513
88000000 0.44273624 -0.45899388 0.010541162 -0.011912075 0.00036657142 4.5788769e-05
-12.560916 0.20889449 -0.3538557 -0.47517774 0.0048183217 0.0035550692
30.862928 1.7085609 -1.5193594 1.1603484 -0.85429752 -0.16018981
89000000 0.43929684 -0.45633796 0.010326327 -0.01172323 7.8048513e-05 0.00010422892
-12.50492 0.32087994 -0.35662398 -0.46944699 0.0047175805 0.0035129718
31.413937 1.3878038 -1.5358516 1.1756154 -0.86322927 -0.16582277
90000000 0.435343 -0.45948458 0.010283463 -0.011639102 0.00022813464 -0.00011834301
-12.548174 0.38360029 -0.35945711 -0.47034046 0.0047643632 0.0035476941
31.016975 1.3517982 -1.5250034 1.1582516 -0.85527658 -0.16299507
91000000 0.43158543 -0.4629854 0.010096982 -0.011509543 9.0460875e-05 0.00015651071
-12.593656 0.48610801 -0.36411101 -0.46653411 0.0051234053 0.0037195822
31.113373 1.0884466 -1.5108652 1.1435406 -0.85599208 -0.16119131
92000000 0.43096101 -0.46391061 0.0099118734 -0.011402814 5.9756385e-06 -8.0713609e-05
-12.577971 0.54307997 -0.36559862 -0.46258807 0.0047298842 0.0035604979
31.112513 0.75624967 -1.4980335 1.1387568 -0.85672355 -0.16095051
93000000 0.42959335 -0.46615639 0.010189129 -0.011398812 4.03267e-05 -5.5447312e-05
-12.632042 0.63018453 -0.36840159 -0.46184963 0.0050004963 0.0037377826
31.077223 0.41167784 -1.4833398 1.1458271 -0.85911065 -0.1537099
94000000 0.42805558 -0.46934497 0.010049591 -0.011074527 0.00024843469 0.00040586112
-12.573958 0.73182583 -0.37282243 -0.4568795 0.0050530569 0.0036779707
31.427412 0.25522423 -1.4888473 1.1509602 -0.86485946 -0.15836701
95000000 0.42057347 -0.46671972 0.0097787082 -0.011102254 9.1430047e-06 0.00013085752
-12.526483 0.8219378 -0.37406451 -0.45059693 0.0051861238 0.0039406135
31.198952 -0.16988134 -1.4660815 1.1313144 -0.86081886 -0.15199342
96000000 0.41958094 -0.47237498 0.0097347889 -0.011117589 0.00012285866 0.00014797917
-12.59473 0.92568779 -0.37788928 -0.45123845 0.0051706871 0.0037559795
31.334003 -0.24699974 -1.4698772 1.1327357 -0.86423308 -0.1535534
