!Keysight Technologies,N5244B,MY57181157,A.18.40.03
!Date: Wednesday, September 10, 2025 10:41:40
!Correction: S11(C  3-Port  ) 
!S12(C  3-Port  ) 
!S13(C  3-Port  ) 
!S21(C  3-Port  ) 
!S22(C  3-Port  ) 
!S23(C  3-Port  ) 
!S31(C  3-Port  ) 
!S32(C  3-Port  ) 
!S33(C  3-Port  ) 
!S3P File: Measurements: <S11,S12,S13>,
!<S21,S22,S23>,
!<S31,S32,S33>:
# Hz S  RI   R 50
10000000 0.88938498 -0.16499132 0.040654384 -0.010952128 0.00072784495 -0.00032176671
-1.7368622 -3.7009716 0.71195418 -0.39773166 0.0052007241 -0.0093031749
-1.327143 7.6739001 -3.0453856 -1.1660849 -0.28833815 -0.81914747
11000000 0.87930477 -0.17855406 0.040704548 -0.011704804 0.0002125243 0.00037871848
-1.9758797 -3.9851742 0.69439316 -0.42680222 0.004017699 -0.0075101499
-0.91942835 8.7813692 -3.2115366 -1.0265708 -0.35416973 -0.79611111
12000000 0.87496638 -0.19298902 0.039567899 -0.012962161 0.00027653686 -0.00023566434
-2.271601 -4.2461195 0.66348904 -0.45939392 0.0024037242 -0.0069242101
-0.32449675 9.8725376 -3.3359933 -0.78756845 -0.42565846 -0.771308
13000000 0.86444396 -0.20767847 0.039320096 -0.013685417 0.00014341449 -0.00043011727
-2.5643871 -4.4394093 0.63816303 -0.48317936 0.002362207 -0.0073383199
0.11420441 10.66329 -3.3711596 -0.71990645 -0.4562737 -0.74361277
14000000 0.85870349 -0.21457615 0.038822137 -0.013987099 0.00034372797 -0.00052881369
-2.7752104 -4.6288171 0.61478305 -0.49989536 0.0025478522 -0.0062460192
0.82165861 11.346947 -3.42241 -0.52943599 -0.50706768 -0.71622688
15000000 0.85006237 -0.22521138 0.037569296 -0.014667887 -0.00041300437 0.00011148152
-3.1124864 -4.7788453 0.58853233 -0.52210671 0.0016213744 -0.0058841868
1.5618639 12.13586 -3.4615359 -0.41179156 -0.54018426 -0.68532145
16000000 0.83465117 -0.23643064 0.036259018 -0.015651617 -0.00023675936 -0.00064921367
-3.4214242 -4.9139953 0.55215126 -0.54579026 0.001674481 -0.0053994209
2.6130328 13.002923 -3.501996 -0.19409299 -0.58663028 -0.6629861
17000000 0.82937479 -0.24566673 0.037039254 -0.015504602 0.00040086248 -0.00013995568
-3.6516588 -5.123601 0.53940296 -0.56600952 0.0015339064 -0.0045627514
3.0583348 13.450811 -3.4942172 -0.079449177 -0.60855997 -0.62831241
18000000 0.82122308 -0.25875539 0.034985065 -0.016156478 -0.00025271339 6.8971873e-05
-3.9339809 -5.2359366 0.50837678 -0.58107793 0.00081723346 -0.0041173357
3.8436244 14.114883 -3.4844842 0.05388093 -0.6345281 -0.6014272
19000000 0.81109828 -0.26520106 0.034379702 -0.017537076 0.0002162423 -0.00036825653
-4.2243271 -5.2745781 0.47980848 -0.58877361 0.00098521844 -0.0035305063
4.8626933 14.259655 -3.4317856 0.18319094 -0.65815711 -0.57199425
20000000 0.80454171 -0.27320236 0.033072636 -0.017970553 2.6892663e-05 -4.723583e-05
-4.4620438 -5.3867702 0.45519215 -0.60109293 0.0014499706 -0.0034618126
5.5743694 14.637618 -3.406384 0.27997839 -0.6721549 -0.55462009
21000000 0.79606062 -0.28695729 0.033252586 -0.01842393 0.00034956227 1.6095859e-05
-4.7961864 -5.5427747 0.43429995 -0.62394798 0.0015672965 -0.0032113739
6.3015428 15.362423 -3.4228077 0.38111663 -0.69013393 -0.53986007
22000000 0.78860748 -0.29055157 0.031754352 -0.01812036 -0.00026943354 -0.00014690506
-5.0329399 -5.5439601 0.41223899 -0.62779307 0.0012559155 -0.0026933101
7.1241651 15.37819 -3.3646092 0.46754438 -0.70636111 -0.5116787
23000000 0.7778973 -0.29108769 0.030744309 -0.018295815 -0.00033776221 -0.00027613042
-5.2717543 -5.5499434 0.3806068 -0.63588411 0.00040449074 -0.0017205543
7.9506321 15.692009 -3.325079 0.5461753 -0.72238171 -0.49832222
24000000 0.77067173 -0.30419791 0.031008162 -0.018364035 0.00020300155 5.6734596e-05
-5.5398893 -5.677103 0.36273968 -0.64418143 0.0013333346 -0.00079298636
8.3691082 15.926126 -3.27143 0.59177899 -0.71974128 -0.48761025
25000000 0.76124573 -0.3082318 0.030223398 -0.018595289 -0.00013740812 -7.6910554e-05
-5.8331223 -5.6880207 0.33422205 -0.65469879 0.0018104112 -0.00075490761
9.442625 16.060673 -3.2243218 0.70990217 -0.74190319 -0.46048382
26000000 0.75105888 -0.31615761 0.029426614 -0.018975567 0.00014212218 -0.00012116548
-6.1312852 -5.7007337 0.30798945 -0.66635305 0.0014379114 -0.00054072146
10.160669 16.318739 -3.183183 0.76677412 -0.74908698 -0.45106325
27000000 0.74171823 -0.32358122 0.028771458 -0.018610606 0.00043675513 9.7039287e-05
-6.3612161 -5.6972795 0.28638962 -0.6641773 0.00125153 -0.00022112406
10.98164 16.228655 -3.1096127 0.81424892 -0.75628459 -0.43659374
28000000 0.73596787 -0.32781249 0.027577598 -0.019649232 -2.6301655e-05 8.2390667e-05
-6.6056433 -5.692205 0.26116911 -0.6698128 0.0011194624 -4.4814104e-05
11.615274 16.162573 -3.0360823 0.8808139 -0.75904846 -0.42254633
29000000 0.72495168 -0.32995036 0.027667372 -0.019114969 0.00050925999 0.00067510753
-6.853425 -5.5832577 0.23633999 -0.6698786 0.0014833318 3.8610324e-06
12.857073 16.470331 -3.0555537 0.95650643 -0.77894849 -0.41540226
30000000 0.7222259 -0.33371094 0.026714111 -0.019134283 1.8080733e-05 0.00011549807
-7.033566 -5.6360121 0.2243284 -0.6779632 0.0014616871 0.00042027907
12.963939 16.277027 -2.9860368 0.95356143 -0.77844554 -0.3990809
31000000 0.71036136 -0.34159642 0.026227653 -0.019426202 0.00038224517 -2.2033691e-05
-7.3375149 -5.6187387 0.19895528 -0.68343002 0.00164322 0.00088326988
13.838095 16.243294 -2.9199805 1.023917 -0.78313786 -0.38587135
32000000 0.70290703 -0.34780651 0.025895067 -0.018990114 -0.00016256722 3.1696691e-05
-7.5555305 -5.5256486 0.17425051 -0.68039918 0.0014890757 0.00065548875
14.496448 16.360849 -2.8931723 1.0441257 -0.7911011 -0.37904775
33000000 0.69583213 -0.34772086 0.025115544 -0.019368982 5.408841e-05 -0.00024696597
-7.7133064 -5.4436145 0.16220158 -0.67952001 0.0014543998 0.00049229112
15.005814 15.920737 -2.8363109 1.0607636 -0.79531163 -0.36794713
34000000 0.6876539 -0.35574964 0.024789406 -0.019237872 0.00035259392 9.9119665e-05
-7.9813366 -5.4230652 0.14035569 -0.68239099 0.0012817492 0.0012303268
15.583805 16.189753 -2.8142843 1.0816694 -0.7978465 -0.36407998
35000000 0.68134701 -0.35517699 0.023364458 -0.01931414 0.00036219883 0.00026121672
-8.1509018 -5.3163214 0.11753178 -0.67652202 0.0017388969 0.00093557569
16.303553 15.792572 -2.7323482 1.112268 -0.79863614 -0.34987187
36000000 0.67339903 -0.3602331 0.023503043 -0.019370755 0.00015535911 -1.2224416e-05
-8.3789444 -5.2683687 0.10285336 -0.68095976 0.0017323098 0.00099946768
16.835445 15.649828 -2.686727 1.1504986 -0.80691266 -0.33948281
37000000 0.66612053 -0.3606106 0.022851808 -0.018888216 0.00016375592 9.2476941e-05
-8.5568533 -5.1437154 0.082134485 -0.67824626 0.0020964472 0.00077683269
17.396803 15.38157 -2.6428013 1.1580863 -0.80676281 -0.33460346
38000000 0.65756005 -0.36270407 0.0218456 -0.018753676 0.00026239775 0.00043942995
-8.7301559 -5.076932 0.064195186 -0.67809558 0.0020854429 0.001448632
18.080906 15.155771 -2.594233 1.2046416 -0.81299567 -0.32135734
39000000 0.64957583 -0.36572284 0.021533364 -0.018754493 -0.00012472752 0.00028232078
-8.8925829 -5.0010538 0.050091073 -0.6758889 0.0017773141 0.0015305219
18.537285 15.129244 -2.5685868 1.21209 -0.81793964 -0.31731802
40000000 0.64459354 -0.37151325 0.021162108 -0.01917378 -0.00030723188 0.00013209438
-9.0808563 -4.8665304 0.030739963 -0.67413831 0.0024424463 0.0020797269
18.886976 14.934323 -2.5207069 1.1881382 -0.81453568 -0.31228226
41000000 0.63964212 -0.37444812 0.020968717 -0.018749092 -7.5350756e-05 0.00032472343
-9.2224703 -4.7987704 0.014372826 -0.66944945 0.0021073832 0.0017290338
19.475237 14.715937 -2.4757318 1.2117934 -0.81581616 -0.30747148
42000000 0.63171846 -0.37579304 0.020367449 -0.018578023 5.5623022e-05 -0.00040447171
-9.3883333 -4.744813 0.00021907687 -0.66696286 0.0020285018 0.0016004987
20.048233 14.576168 -2.4476485 1.2483027 -0.82447255 -0.30201843
43000000 0.6252749 -0.37894452 0.02044506 -0.018607005 -0.0001675768 -0.00022557538
-9.6064196 -4.6163526 -0.018657625 -0.66760874 0.0022453414 0.001987661
20.750309 14.278928 -2.4033852 1.2784008 -0.82933956 -0.28787297
44000000 0.62041187 -0.37672317 0.019368695 -0.018240415 -1.5311389e-05 7.00991e-05
-9.6360817 -4.4951205 -0.030981481 -0.65733707 0.002658631 0.0018428494
21.24155 13.835897 -2.3702743 1.2917247 -0.83650786 -0.28681305
45000000 0.61698973 -0.38412127 0.019191815 -0.018506886 -0.00027986127 0.00024729915
-9.7876892 -4.4207087 -0.043555051 -0.65182328 0.0027979733 0.0019937225
21.336294 13.616435 -2.3063979 1.256588 -0.8279897 -0.28248423
46000000 0.60724556 -0.38570935 0.018830881 -0.0180429 0.00010530619 0.0001486738
-9.9896889 -4.2475033 -0.060913175 -0.65428102 0.0026938906 0.0022896021
21.783222 13.46752 -2.2863514 1.2724042 -0.82887685 -0.27207094
47000000 0.60711879 -0.3854655 0.01798063 -0.017195199 -0.00015047195 -0.00024650738
-10.041311 -4.2106085 -0.065658957 -0.64990264 0.002719105 0.0017162536
21.941034 13.069082 -2.2600441 1.2649441 -0.83315504 -0.26754448
48000000 0.59962779 -0.38568658 0.017596703 -0.017662717 0.00016606644 -0.00010858357
-10.179657 -4.0993338 -0.07923995 -0.64360279 0.0028884336 0.0023238715
22.460896 12.68766 -2.2126334 1.2871343 -0.83631611 -0.25928089
49000000 0.59501702 -0.39089507 0.017779335 -0.017618051 -0.00015150169 -4.8687343e-05
-10.325038 -4.0021553 -0.091256082 -0.64576495 0.0030157096 0.0022744171
22.864744 12.630426 -2.2058747 1.295379 -0.83925813 -0.25763071
50000000 0.58935934 -0.39229009 0.017384179 -0.017298341 -0.00014204328 0.0006720922
-10.435444 -3.9105947 -0.10007803 -0.63751799 0.0027151438 0.0021564723
22.958908 12.415841 -2.1677959 1.2637269 -0.83743119 -0.2556248
51000000 0.58404279 -0.39729261 0.017030535 -0.017371627 0.00015744017 -0.00036374468
-10.575089 -3.7305963 -0.12038855 -0.63483489 0.0030921188 0.0022285203
23.653612 12.11555 -2.1336403 1.2829475 -0.83959913 -0.25215951
52000000 0.58084345 -0.39402601 0.016519964 -0.017023053 0.00027502779 2.0964704e-05
-10.652461 -3.667635 -0.12530299 -0.62805653 0.0030017544 0.0023816267
23.810413 11.753265 -2.1054764 1.2796314 -0.84055102 -0.24578272
53000000 0.57578677 -0.39817548 0.016487898 -0.016600627 6.4781038e-05 0.00030777164
-10.791534 -3.5230255 -0.13830753 -0.62548482 0.0029889909 0.002206652
24.191402 11.430727 -2.0639746 1.2861652 -0.84241468 -0.23830259
54000000 0.57200611 -0.39951348 0.015877485 -0.016863862 0.00030419548 1.3756515e-05
-10.878732 -3.4443624 -0.1491309 -0.62171245 0.0033784336 0.0024002688
24.444588 11.400821 -2.0594213 1.2802092 -0.84427202 -0.24126987
55000000 0.56545705 -0.39793044 0.015932655 -0.016415037 0.00027583051 0.00033799824
-10.873682 -3.2778153 -0.1593277 -0.61253953 0.0035279419 0.002651674
24.861267 11.007027 -2.0315661 1.2869234 -0.84932393 -0.23594469
56000000 0.56125003 -0.40513748 0.015501285 -0.016423211 -0.00036172481 0.00033130456
-11.036335 -3.1708481 -0.17071752 -0.60863101 0.0031860007 0.0027541877
24.953142 10.450819 -1.9809327 1.2745832 -0.84804237 -0.22947484
57000000 0.55992085 -0.40577316 0.015432749 -0.01610975 0.00031009954 0.00032715881
-11.096704 -3.0879564 -0.17412594 -0.60874832 0.0034639048 0.0029096478
25.060404 10.138083 -1.9654202 1.2712135 -0.84518665 -0.22370283
58000000 0.55456567 -0.4110797 0.015029328 -0.016466597 0.00012475556 -2.1000933e-05
-11.210266 -2.9790154 -0.18654825 -0.6064207 0.003726698 0.0025591676
25.546513 10.192732 -1.958313 1.2894047 -0.85387778 -0.22500132
59000000 0.54888713 -0.40875587 0.01463517 -0.015854124 0.00014986478 -0.00026592979
-11.196149 -2.8499079 -0.19069947 -0.59247947 0.0036477097 0.0026397351
25.840683 9.3019876 -1.9055402 1.2761438 -0.84961945 -0.21389444
60000000 0.54480755 -0.40620586 0.014298853 -0.015763039 -5.2994641e-05 5.4732864e-05
-11.244455 -2.7166452 -0.20016104 -0.58969319 0.0041473331 0.0027435557
25.914591 9.2885008 -1.9020392 1.2629535 -0.85399818 -0.21641338
61000000 0.54181701 -0.41121763 0.01436846 -0.015826065 0.00038341148 6.9018774e-05
-11.335832 -2.7100654 -0.20807543 -0.5880878 0.0031684372 0.0028013161
26.089735 8.8705521 -1.8585432 1.2861434 -0.85411865 -0.20744245
62000000 0.53953004 -0.41638127 0.014285128 -0.015364923 0.00019301519 0.00018446628
-11.487823 -2.5611074 -0.21852784 -0.58686745 0.0036686196 0.0024725886
26.373871 8.8912144 -1.8611149 1.2664194 -0.85420984 -0.21396156
63000000 0.5338257 -0.41547754 0.013771812 -0.015579854 7.0552327e-05 -0.00020733806
-11.470895 -2.3359833 -0.22775519 -0.57815987 0.0036337818 0.0027764027
26.550694 8.4034243 -1.8315279 1.2487118 -0.85258442 -0.20940237
64000000 0.53136116 -0.41772074 0.013758101 -0.01532917 0.00030982681 0.00027728482
-11.576217 -2.3345661 -0.23261711 -0.57489443 0.0039653899 0.0029000579
26.640949 8.0898581 -1.8002225 1.2636474 -0.85460216 -0.19847462
65000000 0.52684838 -0.42108107 0.013277524 -0.014832847 -0.00015712537 0.00024032527
-11.600043 -2.2324505 -0.23717761 -0.56948477 0.0037538384 0.0037157759
26.887732 7.9155431 -1.8015521 1.2479237 -0.86063927 -0.20250152
66000000 0.52288914 -0.42376569 0.013272323 -0.01503389 -6.8780409e-06 4.214462e-05
-11.706338 -2.0978019 -0.24811627 -0.57108635 0.0037929434 0.0032069329
27.050793 7.7066135 -1.7809498 1.2580705 -0.85614491 -0.19845475
67000000 0.51752007 -0.42234784 0.013168141 -0.014501136 0.0002454526 0.00012069765
-11.695794 -1.9372565 -0.25043842 -0.56429553 0.0039856122 0.0032110428
27.241449 7.3942032 -1.7762947 1.231644 -0.85879844 -0.19798046
68000000 0.51389802 -0.42736316 0.013001569 -0.014795466 -0.00022541506 0.00012417283
-11.784135 -1.8112254 -0.26167405 -0.5579803 0.0040005296 0.0028618169
27.508347 7.1290293 -1.7447393 1.2371825 -0.86008906 -0.19399688
69000000 0.51040256 -0.42658004 0.012818228 -0.01455958 -0.00013447975 -0.00017590598
-11.794464 -1.7256322 -0.2689386 -0.55227327 0.003429001 0.0031780661
27.662317 6.7222013 -1.7158393 1.2465408 -0.86033285 -0.18872342
70000000 0.50838113 -0.42783096 0.012648665 -0.014055842 6.1013056e-05 -1.9833298e-05
-11.843979 -1.6389904 -0.27327508 -0.55199325 0.0041098748 0.0027909058
27.58823 6.4282146 -1.7095671 1.2409281 -0.86158574 -0.1874215
71000000 0.50696331 -0.43154195 0.012266881 -0.014092928 -9.0081783e-05 0.00012709657
-11.896029 -1.5735235 -0.27705553 -0.54624254 0.0041686925 0.0033706294
27.749493 6.0502357 -1.6825454 1.2359722 -0.86315489 -0.18021527
72000000 0.50045604 -0.43050119 0.012419617 -0.013960936 3.9552157e-05 0.00016393329
-11.879254 -1.3980045 -0.28532445 -0.53821689 0.0041460991 0.0029224702
27.926485 5.7637482 -1.6623591 1.2246639 -0.86175847 -0.1805729
73000000 0.49560064 -0.43400645 0.012187794 -0.013921341 0.00045341154 -0.00021118716
-11.986251 -1.2767925 -0.29241189 -0.53852773 0.0041698553 0.0031706556
28.01659 5.4064865 -1.6441944 1.2216445 -0.86117357 -0.17606539
74000000 0.49469328 -0.43530765 0.012037912 -0.013690134 0.0001277558 2.7131286e-05
-11.980834 -1.1905513 -0.29590055 -0.53235638 0.0041299211 0.003135728
28.093937 5.2503157 -1.634305 1.2118571 -0.86142349 -0.17375088
75000000 0.49234748 -0.43727279 0.011905368 -0.013403698 0.00024348436 8.2728257e-05
-12.003447 -1.169723 -0.29387632 -0.53122872 0.0042829025 0.0031145508
28.027777 5.1473999 -1.6400729 1.1956331 -0.85982066 -0.17607626
76000000 0.48793906 -0.43632171 0.011720444 -0.01374629 4.4664073e-05 0.00014487523
-12.024982 -0.99861956 -0.30621296 -0.52452767 0.0043920744 0.0036672556
28.262997 4.6157408 -1.6041386 1.2147206 -0.86384577 -0.1705766
77000000 0.48393226 -0.43726113 0.011300354 -0.013245579 0.00026526776 6.4439235e-05
-12.02326 -0.88047028 -0.30685082 -0.51887554 0.0044950685 0.0033432045
28.105314 4.476613 -1.5991081 1.1736732 -0.86055452 -0.1769602
78000000 0.48138875 -0.44529781 0.011640561 -0.01317967 -7.9256824e-05 -9.1024456e-05
-12.081707 -0.7810154 -0.31778786 -0.51620048 0.0041842745 0.0030998173
28.730824 4.1623497 -1.588185 1.2063749 -0.86070222 -0.17304549
79000000 0.47800338 -0.44175571 0.011464024 -0.013174837 0.00042594521 0.00012364554
-12.08899 -0.69165707 -0.31967232 -0.51332933 0.0045940806 0.0034783129
28.640663 4.0709267 -1.5853776 1.1896862 -0.86441338 -0.1706157
80000000 0.4744637 -0.4433555 0.011031871 -0.012611845 2.9747891e-05 -6.9435933e-05
-12.153681 -0.55702925 -0.32592738 -0.51250488 0.004467383 0.0033913739
28.486485 3.6804752 -1.5603161 1.1840777 -0.86445272 -0.1666747
81000000 0.4724434 -0.44379956 0.011324862 -0.012745259 -0.00021487378 8.3800463e-05
-12.113213 -0.45656919 -0.3303051 -0.50483561 0.0043136543 0.0033036179
28.727571 3.4870234 -1.5488846 1.1767232 -0.86549908 -0.16723816
82000000 0.47040516 -0.44721425 0.010931705 -0.012295926 3.2128035e-05 -5.8484657e-05
-12.150928 -0.42427206 -0.33034194 -0.50344658 0.0042961133 0.003202247
28.671728 3.1717224 -1.5398912 1.1689065 -0.86584538 -0.16381827
83000000 0.46645769 -0.44915003 0.010864034 -0.012283096 0.00010752036 0.00014496745
-12.154276 -0.26178265 -0.33917505 -0.49846491 0.0047678864 0.0034243336
28.835155 3.0514078 -1.5224206 1.1736324 -0.86448896 -0.15894973
84000000 0.46530905 -0.44784653 0.010713911 -0.012356423 1.6779784e-05 -0.00045148667
-12.134597 -0.25748706 -0.33648077 -0.49205285 0.0044750026 0.0030458153
28.799271 2.5039473 -1.5137445 1.1567683 -0.86777246 -0.16030782
85000000 0.46022272 -0.45406711 0.010836218 -0.012250267 8.7541979e-05 -6.8953645e-06
-12.208516 -0.081455469 -0.34578836 -0.49120963 0.0048383884 0.0036447952
29.085674 2.3719387 -1.5095663 1.1604145 -0.87014478 -0.15871629
86000000 0.46022043 -0.45440212 0.010313023 -0.012113376 0.00020829854 0.00010903663
-12.233398 -0.073739767 -0.34591982 -0.49119082 0.004865713 0.0035191628
28.739023 2.1301832 -1.4981064 1.1524498 -0.8659929 -0.15245208
87000000 0.45726675 -0.45669782 0.010316946 -0.011938965 -3.5166726e-05 0.00029756789
-12.245111 0.04524231 -0.35343441 -0.48565111 0.0048829583 0.0039924579
28.960787 1.9021077 -1.4873223 1.150417 -0.87097216 -0.15337028
88000000 0.45205224 -0.46003777 0.010087447 -0.011723612 -0.00014842635 -8.4019448e-06
-12.211648 0.19496119 -0.35670727 -0.47925672 0.0045941067 0.0037288871
28.8554 1.5240316 -1.4537954 1.131314 -0.86324561 -0.15047871
89000000 0.44848856 -0.45734182 0.010135593 -0.011370664 0.00016939674 0.00032771131
-12.157301 0.30170757 -0.35973021 -0.47402862 0.0047653415 0.0037387684
29.372862 1.2240148 -1.4693103 1.1470877 -0.87333965 -0.15505683
90000000 0.44474876 -0.46077296 0.010097192 -0.011797268 0.00018097012 0.00024866778
-12.200871 0.36529782 -0.36295244 -0.47531974 0.0047834348 0.0037501715
29.003878 1.192704 -1.4586021 1.1303755 -0.86456388 -0.1529661
91000000 0.44086727 -0.46354988 0.010470633 -0.011383552 -8.1971302e-05 -0.00010321526
-12.244332 0.46378782 -0.36658219 -0.47104168 0.0043515163 0.0035978507
29.092361 0.95314479 -1.4458761 1.1158912 -0.8654303 -0.15138841
92000000 0.43985787 -0.46514872 0.0098307207 -0.011149531 0.00027841344 -0.00016013964
-12.228243 0.52043176 -0.36819187 -0.46688965 0.0048370236 0.0032144645
29.088436 0.64142418 -1.4335953 1.111082 -0.86639678 -0.15146109
93000000 0.43859661 -0.46749455 0.0098985098 -0.011360697 0.00028083095 0.00021219807
-12.28184 0.60461843 -0.37146014 -0.46638292 0.0051701106 0.0038437168
29.053442 0.32000852 -1.4189501 1.1174539 -0.86868215 -0.14447384
94000000 0.43733013 -0.47022918 0.0096915755 -0.010913125 -9.6375836e-05 0.00023197895
-12.223252 0.70294857 -0.37625843 -0.46093982 0.0048981523 0.003859615
29.378103 0.17457581 -1.4239651 1.1221814 -0.87378615 -0.14862223
95000000 0.42957342 -0.46795499 0.0095918793 -0.010781993 0.00014822572 0.00018220558
-12.175947 0.79187679 -0.37718901 -0.45511413 0.0051910658 0.0039549647
29.161448 -0.22310305 -1.4020917 1.1032119 -0.87048042 -0.14231345
96000000 0.42885241 -0.47384438 0.0097354464 -0.010700751 -5.477402e-05 0.0001963953
-12.242175 0.89243364 -0.38121757 -0.45538771 0.0050115762 0.0041547017
29.287285 -0.29297638 -1.4060407 1.1043921 -0.87393343 -0.14420763
