!Keysight Technologies,N5244B,MY57181157,A.18.40.03
!Date: Wednesday, September 10, 2025 10:39:32
!Correction: S11(C  3-Port  ) 
!S12(C  3-Port  ) 
!S13(C  3-Port  ) 
!S21(C  3-Port  ) 
!S22(C  3-Port  ) 
!S23(C  3-Port  ) 
!S31(C  3-Port  ) 
!S32(C  3-Port  ) 
!S33(C  3-Port  ) 
!S3P File: Measurements: <S11,S12,S13>,
!<S21,S22,S23>,
!<S31,S32,S33>:
# Hz S  RI   R 50
10000000 0.8900336 -0.16449603 0.040544555 -0.01152868 0.0003698784 -0.00052208162
-1.7101551 -3.6483755 0.71209097 -0.39881411 0.0046243509 -0.0097852247
-1.1809587 7.4556131 -3.0147281 -1.1008077 -0.31768551 -0.81083298
11000000 0.87989414 -0.1768637 0.041366305 -0.012576423 -0.00040758628 -8.1996055e-05
-1.9457515 -3.922452 0.69357729 -0.4298358 0.0021722207 -0.008147846
-0.77183461 8.5101604 -3.1712861 -0.9640016 -0.38311046 -0.7850877
12000000 0.87580299 -0.19250119 0.039599113 -0.012288226 0.00089551497 -0.00026307261
-2.2340479 -4.1826243 0.66325009 -0.46103376 0.0027868005 -0.0070859892
-0.18810177 9.5431623 -3.284276 -0.72497773 -0.45219064 -0.75972587
13000000 0.86640918 -0.20459828 0.03852034 -0.013081933 -0.00060736027 0.00051479379
-2.5238581 -4.3707337 0.63650346 -0.48444593 0.0020202724 -0.0068624401
0.24351692 10.299743 -3.31689 -0.65905917 -0.48173594 -0.72975463
14000000 0.86028838 -0.21173853 0.037934147 -0.013591914 8.0460115e-05 0.00055177871
-2.7340684 -4.5570507 0.61335742 -0.50113839 0.0015556538 -0.0054669566
0.93425798 10.93856 -3.3603978 -0.47058916 -0.52888179 -0.70185447
15000000 0.85183918 -0.22371987 0.037831966 -0.014285459 -0.00010131774 0.0002926779
-3.0650473 -4.7055416 0.58756411 -0.52363157 0.0014641078 -0.0057399268
1.6479554 11.686477 -3.3965178 -0.35832131 -0.56214738 -0.67211252
16000000 0.83684534 -0.23408371 0.036750518 -0.015533666 0.00020403555 -0.00012869194
-3.3704636 -4.8367538 0.55146545 -0.54724294 0.0018419314 -0.0056686583
2.6663499 12.495622 -3.4299521 -0.14649451 -0.6053797 -0.64895165
17000000 0.83145535 -0.24295214 0.036375437 -0.016541177 -0.00035525209 -0.00044921276
-3.5967653 -5.0433636 0.53896189 -0.56747043 0.0013360772 -0.0042983918
3.0917053 12.921504 -3.4179006 -0.034314513 -0.62613416 -0.61326414
18000000 0.82200652 -0.25708926 0.035459727 -0.01676649 0.00015815071 -0.00056769117
-3.876287 -5.1541796 0.50832993 -0.58287823 0.0011012382 -0.0042813732
3.8528428 13.548287 -3.4063492 0.09423542 -0.65269506 -0.58680189
19000000 0.8135305 -0.2626901 0.033960212 -0.017021203 4.6743189e-05 0.00023720524
-4.1612 -5.1929083 0.47795498 -0.59155542 0.00074367132 -0.0031675776
4.8233395 13.671003 -3.3501768 0.21789122 -0.67361766 -0.55672169
20000000 0.80736876 -0.2713818 0.03293233 -0.018069815 0.00013995459 0.00040412892
-4.3934498 -5.3019176 0.45364904 -0.60264128 0.0012170684 -0.0027803183
5.5026412 14.025157 -3.3250835 0.31057537 -0.68739396 -0.54041988
21000000 0.79721731 -0.28336507 0.032860432 -0.017302686 0.00017603113 0.00023964727
-4.7205348 -5.453928 0.4323234 -0.62625414 0.0013543958 -0.0022856672
6.2025919 14.708632 -3.3380818 0.40756583 -0.70480996 -0.52677417
22000000 0.79048097 -0.28867847 0.031742048 -0.017835628 -0.00024366111 -0.00035231179
-4.9574299 -5.4540296 0.40982315 -0.63020009 0.00071767857 -0.0023920308
6.9892578 14.715629 -3.2806764 0.4914847 -0.7213254 -0.49777997
23000000 0.78059852 -0.28785932 0.031597387 -0.018081272 -0.00025120107 -0.00029816185
-5.1930761 -5.4582353 0.37879699 -0.63816583 0.00090390834 -0.0020212873
7.782186 15.003286 -3.2409091 0.56667274 -0.73523605 -0.48564303
24000000 0.77289838 -0.30132887 0.03065473 -0.018306945 -0.00053701474 3.4739976e-05
-5.4539561 -5.5838766 0.36068109 -0.64644855 0.0011039337 -0.0016836771
8.1707478 15.22654 -3.1867659 0.60972631 -0.73289376 -0.47437438
25000000 0.76323348 -0.3061274 0.030014524 -0.018589012 0.00031849043 -5.6629364e-05
-5.7439938 -5.5947971 0.33175567 -0.65736383 0.0011737531 -0.0015743545
9.2008667 15.34602 -3.1394825 0.72420233 -0.75480115 -0.4472551
26000000 0.75358915 -0.31379926 0.028891195 -0.019370308 -9.2249269e-05 -0.0005419798
-6.0375671 -5.6068382 0.30639192 -0.66901642 0.0012695605 -0.0004171633
9.8884449 15.588088 -3.0983837 0.77684677 -0.76006216 -0.43857506
27000000 0.74598938 -0.32010108 0.028952133 -0.018990263 -0.00037548607 0.00022583191
-6.2630324 -5.602911 0.28408259 -0.66647232 0.00086143083 -0.00071111153
10.66651 15.493706 -3.0256665 0.82309413 -0.76718283 -0.42441356
28000000 0.73868489 -0.32516307 0.027616955 -0.018950626 6.3653883e-06 0.00012749797
-6.5046134 -5.5981679 0.25870132 -0.67177296 0.0011107207 -0.00025280233
11.267961 15.428127 -2.9514616 0.88608158 -0.77006602 -0.4108189
29000000 0.72795814 -0.32717195 0.027529491 -0.019205185 0.00031287727 -0.00019721925
-6.7473226 -5.4912453 0.23441124 -0.67209673 0.0017456573 -3.3738244e-05
12.45979 15.710653 -2.9711204 0.96122688 -0.78966671 -0.40232208
30000000 0.72499681 -0.33151543 0.027203269 -0.018814303 6.2128493e-05 -1.0327338e-05
-6.9261899 -5.5423374 0.22258678 -0.67956632 0.0014292926 0.00034354441
12.557477 15.528082 -2.9035063 0.95580554 -0.78869587 -0.38743946
31000000 0.71426433 -0.33966741 0.025880294 -0.019467851 -4.4392706e-05 0.0003454361
-7.2226949 -5.5263195 0.19737563 -0.68486619 0.0018010932 0.00029573968
13.384143 15.49176 -2.8366446 1.0224009 -0.79252994 -0.37463766
32000000 0.70602518 -0.34655097 0.025776993 -0.019556528 0.00023959223 0.00023156259
-7.4398713 -5.433579 0.17102388 -0.68254209 0.0011949569 0.00059487665
14.020889 15.601225 -2.8119993 1.0425149 -0.80108696 -0.36795124
33000000 0.69915307 -0.34642133 0.024871642 -0.019140461 0.00041204962 0.00020530449
-7.5948839 -5.3545494 0.16024923 -0.68161374 0.002050468 0.001469759
14.501026 15.177422 -2.7550294 1.0564001 -0.80454946 -0.35724527
34000000 0.69146091 -0.35285628 0.024228284 -0.019564806 -2.9911149e-05 -0.0003574758
-7.8567553 -5.3336668 0.13779154 -0.68494183 0.0014084032 0.00065000542
15.050787 15.43688 -2.7347064 1.0771029 -0.8067978 -0.35336256
35000000 0.68545103 -0.35210073 0.023600489 -0.019049438 0.00012851569 -0.00041172458
-8.0215569 -5.2253647 0.11610862 -0.67796856 0.0015755538 0.00061498629
15.732778 15.043375 -2.6537495 1.1050253 -0.80758399 -0.33884072
36000000 0.67712355 -0.35747319 0.023136547 -0.019046076 0.0001539998 -6.6583663e-05
-8.2480373 -5.1799011 0.10054706 -0.68289351 0.0020128973 0.0011513343
16.239716 14.907846 -2.6088653 1.1426225 -0.81609088 -0.32963258
37000000 0.67016989 -0.35847026 0.022463478 -0.018582413 7.0765745e-05 0.00026976378
-8.4230108 -5.0564671 0.07982713 -0.68019372 0.0019206315 0.0015101086
16.775467 14.645988 -2.5654626 1.148838 -0.81586087 -0.32472685
38000000 0.66160285 -0.36053497 0.022246648 -0.019276984 -0.00010551499 -1.6138403e-05
-8.5910463 -4.9897776 0.060971066 -0.68044913 0.0019625223 0.0012090274
17.414967 14.422001 -2.5169387 1.1940545 -0.82052606 -0.31061691
39000000 0.65372688 -0.36394483 0.021433907 -0.0191232 7.2013507e-05 -9.5701416e-06
-8.7577181 -4.9146762 0.047293693 -0.67807835 0.0024575382 0.0016652792
17.866829 14.400264 -2.4906795 1.1998515 -0.8258338 -0.30701411
40000000 0.64855134 -0.36945921 0.021393629 -0.0191228 -6.6161876e-05 -0.00010725365
-8.9372902 -4.784029 0.027675986 -0.67662501 0.0021526571 0.0019878864
18.187143 14.217134 -2.4460649 1.1761264 -0.82162762 -0.30217493
41000000 0.64353859 -0.37223637 0.02057202 -0.018665904 0.00025360956 -6.489877e-05
-9.076931 -4.714282 0.011760473 -0.67177683 0.0020132898 0.0016601996
18.749622 14.000891 -2.4027007 1.1985948 -0.82380092 -0.29784989
42000000 0.6355536 -0.37411678 0.020379668 -0.018439664 0.00017618577 0.00026053892
-9.2387762 -4.6628628 -0.0024159849 -0.66809034 0.0023351598 0.0022900722
19.291523 13.86583 -2.373615 1.2332594 -0.83214647 -0.29235092
43000000 0.6286782 -0.37646681 0.020077405 -0.018640328 9.2879098e-05 -0.00025854708
-9.4504261 -4.5330949 -0.021872908 -0.66960895 0.0024814159 0.0015190388
19.951645 13.573432 -2.3301089 1.2619169 -0.83647662 -0.27801338
44000000 0.62463701 -0.37504226 0.01951276 -0.018110096 0.00015142366 -0.00010337554
-9.4837704 -4.4135647 -0.034121841 -0.65881276 0.0029148364 0.0019724637
20.427616 13.146272 -2.29808 1.2743173 -0.8429389 -0.2774905
45000000 0.62125123 -0.38171408 0.018871587 -0.018407557 -2.5168869e-05 -0.00021988724
-9.6289434 -4.3406076 -0.046883583 -0.65389013 0.0028133707 0.0017089301
20.509411 12.94154 -2.2375052 1.2396679 -0.83516335 -0.27333441
46000000 0.61175823 -0.38392138 0.019015208 -0.018532885 -0.00033424585 -0.00010994384
-9.8283749 -4.1709757 -0.064195395 -0.6564157 0.0026379735 0.0018838402
20.934423 12.800087 -2.2171626 1.2552446 -0.83625162 -0.26363376
47000000 0.61107582 -0.38383895 0.017996956 -0.017966321 -0.00020758028 0.00029919381
-9.8777304 -4.136138 -0.067761511 -0.65205187 0.0027985047 0.0021129528
21.077345 12.418415 -2.1914532 1.2471144 -0.84028888 -0.25885361
48000000 0.60412371 -0.3842451 0.017666243 -0.017631374 -2.9613509e-05 7.6881595e-05
-10.012751 -4.0255871 -0.082825944 -0.64524615 0.0030806088 0.0018718787
21.571089 12.052489 -2.1444004 1.2675534 -0.84288335 -0.25173685
49000000 0.59947443 -0.38886717 0.017439026 -0.017427042 3.7867998e-05 -4.9867467e-05
-10.155251 -3.9331808 -0.094614834 -0.6468603 0.0026837755 0.0024478307
21.954643 12.003654 -2.1381896 1.2757663 -0.84625685 -0.24951699
50000000 0.59411317 -0.39092064 0.017064724 -0.017304132 -0.00043549619 -6.4805892e-05
-10.264306 -3.8396833 -0.1029398 -0.63924056 0.0034362131 0.0018877219
22.043678 11.793737 -2.1018453 1.2443922 -0.84408647 -0.24735963
51000000 0.58860707 -0.395913 0.017087948 -0.017366942 0.00014531807 -7.5371063e-05
-10.401851 -3.6614091 -0.1233243 -0.63687479 0.0029705276 0.0023636587
22.708166 11.504195 -2.0689135 1.2623836 -0.84604639 -0.24471793
52000000 0.58495545 -0.39312309 0.016333858 -0.017168045 0.0003815754 -0.00012756402
-10.479076 -3.5971365 -0.12797317 -0.62988061 0.0031146645 0.0025194027
22.856552 11.151388 -2.0407774 1.2594165 -0.84759337 -0.23800974
53000000 0.58037162 -0.39726162 0.015797142 -0.016986562 -0.00011742315 5.7993559e-05
-10.614774 -3.4613543 -0.1417394 -0.62717336 0.0031014124 0.0025849289
23.213392 10.855392 -1.9997506 1.2651898 -0.8490181 -0.23064883
54000000 0.57656735 -0.39874345 0.015644863 -0.016755022 -0.00014553124 7.167639e-05
-10.702537 -3.38345 -0.15148348 -0.62396532 0.0027747278 0.0025171856
23.461998 10.827023 -1.9965187 1.2580647 -0.85118163 -0.23306005
55000000 0.57033402 -0.39650339 0.015156516 -0.016682919 -0.00015299873 3.2630724e-05
-10.694954 -3.2163956 -0.1620871 -0.61447936 0.0030683607 0.0025163335
23.854229 10.441825 -1.9682919 1.2647614 -0.85586023 -0.22846662
56000000 0.56590527 -0.40390331 0.015136199 -0.016540181 -3.3183132e-05 0.00026607796
-10.85345 -3.1130047 -0.1739523 -0.61042422 0.0033191177 0.0027340122
23.933889 9.9171276 -1.9203035 1.2536331 -0.85386544 -0.22243145
57000000 0.56474572 -0.40585223 0.015635995 -0.016285548 -0.00012303944 3.9877828e-05
-10.917358 -3.0329075 -0.17718685 -0.60975128 0.003512616 0.0022885166
24.041845 9.6222305 -1.9038538 1.2489967 -0.85190058 -0.21604443
58000000 0.55920988 -0.41018888 0.014763439 -0.016329486 0.00021144829 0.000373652
-11.023565 -2.9226909 -0.18983808 -0.60838985 0.0032144266 0.0030786691
24.498779 9.6655407 -1.8962677 1.2675774 -0.8592205 -0.21776345
59000000 0.55332571 -0.40773383 0.014718761 -0.015941771 -0.00018935974 0.00028546128
-11.00784 -2.7985303 -0.1945263 -0.59408098 0.0033642284 0.0025676277
24.768515 8.8166552 -1.8460246 1.2539115 -0.85572469 -0.20696324
60000000 0.54944319 -0.40511197 0.014545761 -0.015368422 -9.5618539e-05 0.00029195228
-11.05874 -2.6662385 -0.20406114 -0.59102321 0.0034427522 0.0029177167
24.848787 8.8053989 -1.8426687 1.2413132 -0.86052036 -0.2102114
61000000 0.54671854 -0.4111115 0.013855655 -0.015491835 0.00025278356 0.00023295439
-11.148624 -2.6586704 -0.21178496 -0.59011871 0.003668695 0.0033097083
25.012945 8.4027834 -1.7997596 1.2630073 -0.86009407 -0.20044133
62000000 0.54453528 -0.41568425 0.013685381 -0.015454671 0.00017454091 -8.4454521e-05
-11.298744 -2.5142536 -0.22211251 -0.58904928 0.0040065134 0.002988585
25.286978 8.4290323 -1.8028423 1.2437537 -0.86060345 -0.20650567
63000000 0.53841585 -0.41498625 0.013678837 -0.015485211 -2.2285994e-05 -4.2152773e-05
-11.280575 -2.2924416 -0.2306447 -0.57992709 0.003690033 0.003030919
25.450136 7.9619551 -1.7751592 1.2258983 -0.85875624 -0.20284067
64000000 0.53621525 -0.4166947 0.01366625 -0.015076353 2.4455621e-05 0.0002123349
-11.381916 -2.2897286 -0.23614769 -0.57668972 0.0035111944 0.0031905526
25.528196 7.6607151 -1.7431784 1.2405196 -0.85994971 -0.1919516
65000000 0.53189379 -0.42077342 0.013177008 -0.014835855 -0.00044818269 0.00023218327
-11.410268 -2.1894984 -0.24088067 -0.5713954 0.0036774639 0.0030096031
25.776257 7.4947433 -1.745153 1.2248567 -0.86618358 -0.19608748
66000000 0.52766716 -0.42326316 0.01338845 -0.014873943 0.0001396443 -0.00013175975
-11.511612 -2.0568802 -0.2518152 -0.57240945 0.0036824902 0.002937682
25.923187 7.2964916 -1.7244824 1.2354174 -0.86213392 -0.19167082
67000000 0.52276129 -0.42197451 0.013254525 -0.014279621 0.00025496105 0.00024658549
-11.502217 -1.9025937 -0.25371075 -0.5657236 0.0039844783 0.0034176765
26.107386 7.0057364 -1.7200991 1.209227 -0.86488765 -0.19149777
68000000 0.5189296 -0.42717785 0.012592725 -0.014577426 -8.9428017e-05 -0.00021441341
-11.58793 -1.7749331 -0.26499081 -0.55983031 0.0038773774 0.0030573683
26.359695 6.7437005 -1.6893197 1.2139918 -0.8657878 -0.18802932
69000000 0.51496828 -0.42679113 0.012896445 -0.014270796 0.00011027415 -8.8042187e-05
-11.598005 -1.6911933 -0.27233016 -0.55406982 0.0042008846 0.0028363953
26.502918 6.3547363 -1.6615674 1.2235105 -0.86631185 -0.18268329
70000000 0.51347595 -0.42736441 0.012567712 -0.013992785 0.00013480366 -0.00015365145
-11.645402 -1.6081979 -0.27671516 -0.55373681 0.0041563478 0.0031723306
26.42804 6.0801072 -1.655205 1.2174171 -0.86724019 -0.18138954
71000000 0.51195222 -0.43129319 0.012551349 -0.014181379 8.6609944e-05 9.5072355e-05
-11.696228 -1.5426912 -0.28016454 -0.54826027 0.0042401855 0.0032805512
26.579908 5.7163877 -1.6303021 1.2122564 -0.86887538 -0.1744051
72000000 0.50535673 -0.43037289 0.01216804 -0.013938725 3.9454608e-05 -7.3001043e-05
-11.680579 -1.3685088 -0.2892296 -0.54023856 0.0039418326 0.0035317941
26.750797 5.4405527 -1.609351 1.2013487 -0.86712921 -0.17456144
73000000 0.50068587 -0.43413934 0.012327038 -0.013897184 7.1056755e-05 -2.3219138e-05
-11.785567 -1.2517004 -0.29571003 -0.53992593 0.0041682506 0.0033295515
26.833429 5.1041813 -1.5921314 1.1980861 -0.86619544 -0.16929981
74000000 0.49972165 -0.43558401 0.01154872 -0.013708353 -0.00017398199 4.0281117e-05
-11.78088 -1.1678157 -0.29944539 -0.5339995 0.0038700264 0.0032921562
26.9088 4.9587183 -1.5819645 1.1888007 -0.86686814 -0.16766447
75000000 0.49693072 -0.4371224 0.011694252 -0.013248544 0.00051043567 2.6082402e-05
-11.800079 -1.1472731 -0.29781687 -0.53283179 0.0042765061 0.003242248
26.837439 4.862051 -1.587633 1.1724989 -0.86549878 -0.17030978
76000000 0.4930968 -0.43631864 0.011827279 -0.012929045 0.00027270563 8.5733365e-05
-11.822094 -0.97506285 -0.31011668 -0.52586871 0.0042906562 0.0035624355
27.065102 4.3437061 -1.5530541 1.1909075 -0.86912286 -0.16458109
77000000 0.48893499 -0.43774533 0.011695384 -0.012758538 0.00036282977 7.7445729e-05
-11.821574 -0.85767078 -0.31003544 -0.5203948 0.0042963028 0.0034165748
26.916719 4.2127857 -1.5476331 1.1510396 -0.86613882 -0.1711385
78000000 0.48623213 -0.44527429 0.011767111 -0.012905952 -6.1230479e-05 7.7357974e-05
-11.87727 -0.76669264 -0.32106599 -0.51824892 0.0042267949 0.0031968188
27.508171 3.9233217 -1.5369959 1.1818538 -0.8658914 -0.16751969
79000000 0.48273247 -0.44121575 0.011147199 -0.01280653 7.2643757e-05 2.0554158e-05
-11.884809 -0.67473125 -0.32295394 -0.51525712 0.0042341845 0.0033606682
27.423977 3.8314791 -1.5345805 1.1657751 -0.86892277 -0.16461754
80000000 0.47949341 -0.44379425 0.010515293 -0.012648533 0.00011361386 -0.00014464547
-11.949946 -0.54287338 -0.33008614 -0.51422262 0.0046411445 0.0032471092
27.276516 3.4602299 -1.5091356 1.1613717 -0.86973238 -0.16088158
81000000 0.47708857 -0.44418561 0.010700673 -0.012598129 0.00045103198 0.00019955816
-11.909844 -0.44238615 -0.33373976 -0.50632602 0.0049044425 0.0033862242
27.508793 3.2688303 -1.4978925 1.1537327 -0.87118953 -0.16164808
82000000 0.47509843 -0.44752222 0.010520219 -0.012283374 -4.6921148e-05 0.00020353778
-11.944398 -0.41487646 -0.33427125 -0.50443518 0.0041192509 0.0035298401
27.445984 2.9790554 -1.4895653 1.1457119 -0.87047756 -0.15875232
83000000 0.47157094 -0.44972557 0.010583478 -0.012247692 -1.0254943e-05 2.9011002e-05
-11.947973 -0.25069761 -0.34313655 -0.49998963 0.004421487 0.0034678662
27.602875 2.8546705 -1.4726051 1.1501433 -0.86963558 -0.15318789
84000000 0.46990126 -0.44886601 0.010771158 -0.012171783 0.00020683483 0.00019668126
-11.931165 -0.25051236 -0.34079033 -0.49366394 0.004685868 0.0034799753
27.573212 2.3407106 -1.4648284 1.1337616 -0.87279129 -0.15588555
85000000 0.46480137 -0.45439011 0.010292857 -0.011926478 0.00021472816 -3.41185e-05
-12.003412 -0.076337337 -0.3497209 -0.492697 0.004893777 0.0034967584
27.847433 2.2130246 -1.4605979 1.1378797 -0.87530708 -0.15341143
86000000 0.46512783 -0.454882 0.010578308 -0.011990338 -2.4695441e-05 -0.00020623287
-12.025003 -0.068066359 -0.34935859 -0.49311218 0.004665711 0.0033169014
27.508005 1.9790673 -1.4493356 1.1297814 -0.87063599 -0.14723332
87000000 0.46239832 -0.45687792 0.010308718 -0.011768003 3.3769669e-05 0.00023901509
-12.03795 0.04843545 -0.35714597 -0.48740825 0.004259184 0.0035730109
27.724253 1.7670155 -1.438859 1.1283461 -0.8758508 -0.14787126
88000000 0.4569096 -0.4603264 0.010196514 -0.011625362 -0.00018006041 0.00015493929
-12.005891 0.1948669 -0.36034241 -0.48091003 0.0045641824 0.003464571
27.622524 1.4072759 -1.4062238 1.1087917 -0.86814421 -0.14551675
89000000 0.45335644 -0.45757213 0.0099414233 -0.011241438 -0.00017912165 0.00028112507
-11.950832 0.30271652 -0.36358827 -0.47576168 0.0047224485 0.0036257256
28.115952 1.1116414 -1.4212461 1.124068 -0.87791717 -0.14996034
90000000 0.44939324 -0.46134651 0.010116789 -0.011165607 -0.0002665756 0.00033234165
-11.991361 0.36346862 -0.36636868 -0.47632098 0.0049269502 0.0039880932
27.756157 1.0884386 -1.4111555 1.1071717 -0.86998087 -0.14864591
91000000 0.44547495 -0.46452713 0.010020535 -0.011220159 0.00027874563 -0.0001207571
-12.038163 0.45995983 -0.37096992 -0.4727549 0.0048074792 0.0036380165
27.848976 0.86075199 -1.3987397 1.093568 -0.87038714 -0.14611131
92000000 0.44487038 -0.46579996 0.0098186042 -0.010969901 0.00014069115 0.00014734009
-12.020573 0.51541686 -0.37219417 -0.46858159 0.0050026095 0.0036319017
27.840906 0.56307101 -1.3866453 1.0891453 -0.87202644 -0.14608231
93000000 0.44308916 -0.46814236 0.0097435331 -0.010965161 0.00025715839 -5.3207368e-05
-12.072719 0.59965861 -0.37558433 -0.46800804 0.0050286539 0.0036311483
27.80588 0.2536869 -1.3721256 1.094173 -0.87358838 -0.13893482
94000000 0.44233477 -0.47063094 0.0097370995 -0.010793284 -0.00015447919 -0.00022788908
-12.015109 0.69389606 -0.37995261 -0.46248832 0.0044552642 0.0035795905
28.118732 0.12043333 -1.3769797 1.100062 -0.87829542 -0.1434634
95000000 0.43448141 -0.46894923 0.0097948182 -0.010675433 0.00015646928 9.2183349e-05
-11.970161 0.78247046 -0.38139868 -0.45675111 0.0049277302 0.0035783607
27.91007 -0.25959778 -1.3559005 1.0811293 -0.87476432 -0.13758643
96000000 0.43323812 -0.47502866 0.0097871423 -0.010714016 0.00019412482 0.00020290364
-12.034653 0.88037777 -0.38486707 -0.45749256 0.004812595 0.0037043253
28.03026 -0.32597637 -1.3593493 1.0820286 -0.87906957 -0.13941702
