!Keysight Technologies,N5244B,MY57181157,A.18.40.03
!Date: Wednesday, September 10, 2025 10:31:20
!Correction: S11(C  3-Port  ) 
!S12(C  3-Port  ) 
!S13(C  3-Port  ) 
!S21(C  3-Port  ) 
!S22(C  3-Port  ) 
!S23(C  3-Port  ) 
!S31(C  3-Port  ) 
!S32(C  3-Port  ) 
!S33(C  3-Port  ) 
!S3P File: Measurements: <S11,S12,S13>,
!<S21,S22,S23>,
!<S31,S32,S33>:
# Hz S  RI   R 50
10000000 0.89107561 -0.16041064 0.040743086 -0.011410583 0.00043541088 -0.00048802429
-1.6593192 -3.5278969 0.70635015 -0.40556574 0.0035792142 -0.0094539169
-0.84198117 6.8675904 -2.8909419 -0.92842454 -0.39018655 -0.78271013
11000000 0.88287508 -0.17483938 0.039731786 -0.013151364 0.00056252466 2.6841881e-06
-1.8899133 -3.7966151 0.68972635 -0.4367508 0.003047375 -0.008438468
-0.43522358 7.8049374 -3.0267038 -0.79235303 -0.44935989 -0.75456095
12000000 0.87721044 -0.18864176 0.039496083 -0.012842611 0.00022591054 -0.00044913922
-2.1742635 -4.0442553 0.65825176 -0.46811852 0.0023702898 -0.0073289773
0.1318965 8.7019367 -3.1152263 -0.56278491 -0.5142951 -0.72307217
13000000 0.8673898 -0.20188949 0.039622158 -0.013947625 -0.0001935398 -0.0011387209
-2.4535518 -4.2262316 0.63138551 -0.4905892 0.0022716192 -0.0059735156
0.53304863 9.3667068 -3.1370473 -0.5064522 -0.54118025 -0.69578797
14000000 0.86206996 -0.20838967 0.037792146 -0.013922081 4.6589557e-05 1.5762507e-06
-2.6588581 -4.4019098 0.60664171 -0.5089069 0.0012398404 -0.00596999
1.1720858 9.9055901 -3.1628113 -0.32664227 -0.58501482 -0.66577554
15000000 0.85377252 -0.22012764 0.037672345 -0.014682912 -6.1417864e-05 -0.00011120028
-2.9814508 -4.5433717 0.58092189 -0.53035694 0.0011249726 -0.0047276849
1.8325067 10.5479 -3.1867247 -0.22303402 -0.61372316 -0.6346181
16000000 0.8390429 -0.23014721 0.036508672 -0.016055085 -0.00021318262 -0.00039661897
-3.2788305 -4.6649966 0.54414988 -0.55456644 0.00094723958 -0.0045692115
2.772599 11.22998 -3.2058344 -0.024620533 -0.65428692 -0.61044735
17000000 0.83414644 -0.23949414 0.035570364 -0.015730005 -9.4048286e-05 -0.0002606069
-3.4988356 -4.8639436 0.52991402 -0.57579279 0.00085025595 -0.0038060211
3.1453462 11.591651 -3.1861429 0.073132277 -0.67212439 -0.57706004
18000000 0.82582319 -0.25249243 0.035362303 -0.01649062 -0.00016381565 5.6427827e-05
-3.7690921 -4.9669218 0.49937624 -0.5911057 0.00093762018 -0.0036534774
3.8357239 12.114944 -3.1670942 0.18935156 -0.69278979 -0.55024165
19000000 0.81630403 -0.25821188 0.034214389 -0.017240787 0.0002876425 -0.00020881527
-4.0446701 -5.0006137 0.4696182 -0.59833944 0.00071379083 -0.0025320542
4.6941242 12.188327 -3.1069145 0.29986632 -0.71200001 -0.51992929
20000000 0.81009668 -0.26691562 0.032656513 -0.017546285 -2.8717688e-05 8.1762118e-05
-4.2712264 -5.1026897 0.44414654 -0.6108911 0.00075101445 -0.002863091
5.3031359 12.484831 -3.0772789 0.38164639 -0.72351485 -0.50464827
21000000 0.80097836 -0.27987164 0.032717418 -0.018250696 0.00010510912 -0.00020056366
-4.58708 -5.2471995 0.42338926 -0.63402355 0.0012370228 -0.0016736872
5.9386849 13.077456 -3.0864346 0.47121662 -0.73990071 -0.49080646
22000000 0.79435301 -0.28371096 0.032075118 -0.018030148 0.00018694335 -0.00049339107
-4.8158956 -5.2449951 0.40026453 -0.63889426 0.001025004 -0.0014956625
6.6267209 13.053529 -3.0271938 0.54337949 -0.75298107 -0.46370915
23000000 0.7847029 -0.28414834 0.031086791 -0.018726125 0.00016216486 0.00016536974
-5.0404778 -5.2432847 0.3685655 -0.64576334 0.00084499223 -0.0010435483
7.3317976 13.286504 -2.9870648 0.61135161 -0.76601928 -0.45144594
24000000 0.7772885 -0.29749054 0.030153224 -0.018343791 -0.00024307483 2.1598047e-05
-5.2966843 -5.3636684 0.34857595 -0.65468585 0.00064292701 -0.0011498382
7.6760759 13.487163 -2.9344037 0.64716017 -0.76423895 -0.44282275
25000000 0.76838958 -0.30187035 0.029795937 -0.018886715 0.00034986649 -0.00013135852
-5.5719376 -5.3695059 0.32114702 -0.6645003 0.0010440147 -0.000990703
8.5805244 13.554825 -2.8856871 0.74977958 -0.78299057 -0.41515261
26000000 0.75841743 -0.30827528 0.028952183 -0.018956106 -0.00019306545 -0.00034334083
-5.8545828 -5.3749027 0.29429138 -0.67587936 0.00072004343 -0.0008365346
9.1881924 13.750551 -2.8455029 0.7959131 -0.78746164 -0.40674567
27000000 0.75078624 -0.31425273 0.028548004 -0.018818177 -0.00032209451 -0.00011633737
-6.0697455 -5.3725119 0.27230451 -0.67279196 0.00085477176 -0.00045320022
9.8664608 13.650486 -2.7749467 0.83392024 -0.79347271 -0.39289284
28000000 0.74461675 -0.3192091 0.027709275 -0.019209478 -0.00023571872 -0.00012797673
-6.3007689 -5.3632078 0.24660096 -0.67862517 0.0010903275 -0.0004314594
10.384089 13.576756 -2.7050273 0.88828617 -0.79442251 -0.38100481
29000000 0.73406202 -0.32145423 0.026983296 -0.019487469 2.7548404e-05 -6.0357655e-05
-6.5341296 -5.2539177 0.22166468 -0.67854512 0.00070852641 0.00038657599
11.457644 13.790993 -2.7177162 0.95762467 -0.81319332 -0.37262139
30000000 0.73122394 -0.3262625 0.026738165 -0.019632854 -0.00027269177 0.00020082442
-6.7049074 -5.304636 0.20923869 -0.68645787 0.0016619576 0.00076580379
11.520992 13.636772 -2.6572037 0.94991803 -0.81153065 -0.3587651
31000000 0.72071564 -0.33470321 0.025634833 -0.01882202 0.00010655572 0.0007913849
-6.9901066 -5.2854991 0.18444374 -0.6914413 0.0017980989 0.00073292566
12.246418 13.586766 -2.5934415 1.0074159 -0.81514925 -0.34705645
32000000 0.71278298 -0.34032157 0.025310826 -0.019541891 -0.00040038573 -0.00024994984
-7.196362 -5.194447 0.15803421 -0.68843603 0.0014099824 0.00091516407
12.806517 13.676418 -2.5685816 1.024122 -0.8227101 -0.34028897
33000000 0.70630205 -0.34073681 0.024515012 -0.018873762 -7.8446465e-05 2.7977123e-05
-7.3458881 -5.1153831 0.14651065 -0.68772036 0.0014830015 0.00084355625
13.218607 13.290421 -2.5172427 1.0348984 -0.82586122 -0.3302184
34000000 0.6985262 -0.34781501 0.02388728 -0.019003626 -0.00015868701 8.5461914e-05
-7.5949297 -5.092864 0.12459791 -0.68972361 0.0014897181 0.00093749986
13.705784 13.514652 -2.4966145 1.0525916 -0.82826453 -0.32755309
35000000 0.69305378 -0.34690809 0.023405397 -0.018681694 6.9307134e-07 -0.00026673256
-7.7538719 -4.9900579 0.1019286 -0.68348002 0.0014733167 0.0013170677
14.294553 13.155908 -2.4209957 1.0753868 -0.82733703 -0.31337553
36000000 0.6845203 -0.35254973 0.022472166 -0.019350506 -0.00017834599 1.922053e-05
-7.9696536 -4.9409866 0.086840332 -0.68859732 0.0018463179 0.0010096419
14.737253 13.020409 -2.377346 1.1081902 -0.8357529 -0.30420053
37000000 0.67751509 -0.35342801 0.02196691 -0.019036088 2.8275277e-05 0.00014401371
-8.1359262 -4.823823 0.0653373 -0.68563479 0.001752765 0.0016427452
15.198614 12.782249 -2.3366129 1.1131124 -0.83493304 -0.29948497
38000000 0.6692636 -0.35501102 0.021611627 -0.018970298 0.00015780458 -0.00021448109
-8.296236 -4.7574201 0.047076926 -0.68507177 0.0016797541 0.0010173433
15.753288 12.571264 -2.2898524 1.1512035 -0.8395108 -0.28578186
39000000 0.66203964 -0.35916892 0.021528453 -0.018911274 0.00016061973 -0.00021434974
-8.4579191 -4.6807795 0.032253563 -0.68327451 0.0018942725 0.0012992384
16.151546 12.549438 -2.2665024 1.1556393 -0.84437549 -0.28327486
40000000 0.65582019 -0.36484954 0.020557029 -0.018741734 0.00044488313 0.00034118819
-8.6255779 -4.548521 0.013144493 -0.68061626 0.0026021914 0.0017562875
16.421293 12.37871 -2.22578 1.13073 -0.84094226 -0.27955568
41000000 0.65173417 -0.3673164 0.020786822 -0.018943679 0.00011837384 -5.427418e-05
-8.7540779 -4.4844894 -0.0028608739 -0.67646301 0.0019582994 0.0017155295
16.902412 12.184638 -2.1853368 1.1496217 -0.84098828 -0.27573287
42000000 0.64471239 -0.36921564 0.019360773 -0.018026421 7.8128884e-05 -0.00038826928
-8.9119253 -4.4350467 -0.017180383 -0.67302626 0.0020654998 0.0020284338
17.386627 12.060119 -2.1576991 1.1803983 -0.85000545 -0.27048007
43000000 0.63758057 -0.3728292 0.019466503 -0.018433072 8.9025707e-06 0.00017894842
-9.1142416 -4.3080826 -0.036541462 -0.6738376 0.0021298435 0.0022474586
17.960466 11.786452 -2.1161187 1.204706 -0.85319364 -0.25675035
44000000 0.63316637 -0.37097353 0.018892217 -0.018239187 0.00028245983 0.00014656912
-9.139925 -4.1933489 -0.048880726 -0.66259778 0.0023835264 0.0021928903
18.36479 11.402144 -2.0858624 1.2155573 -0.86067301 -0.25517681
45000000 0.6302588 -0.37744534 0.018628001 -0.018410554 0.00023610058 -0.00028769881
-9.2763586 -4.1218534 -0.061183929 -0.65721601 0.0024462375 0.0018898965
18.42165 11.228585 -2.031111 1.1813829 -0.85214555 -0.25248584
46000000 0.62084901 -0.38010663 0.018113283 -0.018136213 -0.00030762653 3.4622324e-05
-9.4680023 -3.9588201 -0.079518944 -0.6597141 0.0025223813 0.0020013158
18.793491 11.10466 -2.0119126 1.1943427 -0.85205245 -0.24329159
47000000 0.62038183 -0.37963659 0.018129237 -0.017675444 0.00017903095 0.00021819895
-9.5111732 -3.9260106 -0.083001465 -0.65600955 0.0025070268 0.002148133
18.902031 10.765659 -1.9881866 1.1858873 -0.85638797 -0.23881242
48000000 0.61373651 -0.38067415 0.017249564 -0.017631195 0.00017740479 0.00018018865
-9.6433201 -3.8180108 -0.09725222 -0.64853787 0.0026156639 0.0022551047
19.3363 10.434366 -1.9453905 1.2034777 -0.85829759 -0.23109192
49000000 0.60899633 -0.38511583 0.017311081 -0.017451476 0.00029978738 0.00016094183
-9.7770481 -3.7278345 -0.11007774 -0.65058142 0.0028705331 0.0023845253
19.66991 10.38652 -1.9385824 1.2106202 -0.86155069 -0.22944957
50000000 0.60388666 -0.38685623 0.016979381 -0.017169638 0.00029378745 -3.5689256e-05
-9.8793869 -3.6401033 -0.11812909 -0.64260435 0.0029700287 0.0023338436
19.73979 10.211292 -1.906279 1.1803263 -0.86002481 -0.22876945
51000000 0.59882778 -0.39225796 0.016688902 -0.016951904 9.3423587e-05 -5.6693192e-05
-10.006752 -3.4680698 -0.13886195 -0.63951385 0.0026570824 0.0019415817
20.317265 9.9494123 -1.8751863 1.1964213 -0.86145753 -0.22607878
52000000 0.59511453 -0.38958937 0.016061004 -0.016620778 0.0001566478 -3.6718891e-05
-10.08234 -3.4063106 -0.14360714 -0.63285005 0.0030156064 0.0026374052
20.444309 9.6369667 -1.8488044 1.1923256 -0.86268961 -0.21934947
53000000 0.59044105 -0.39363545 0.015811563 -0.016532704 6.9436617e-05 2.0925612e-05
-10.211117 -3.2734771 -0.15634757 -0.62986106 0.0031877253 0.0026945132
20.753216 9.3691034 -1.8115606 1.1966146 -0.8635574 -0.21194568
54000000 0.58663404 -0.39560974 0.015363657 -0.016454708 0.0002976291 0.00034039892
-10.291892 -3.198194 -0.16714682 -0.62647343 0.0029943276 0.0026697393
20.966616 9.3449316 -1.8082755 1.1901464 -0.86612928 -0.21478999
55000000 0.58090979 -0.39369476 0.015180781 -0.016521495 0.00014239308 -1.335538e-05
-10.283043 -3.0369 -0.17739375 -0.61770582 0.0030681291 0.0024065105
21.304783 8.9990463 -1.7827848 1.1950885 -0.87033522 -0.21085124
56000000 0.5765186 -0.4009822 0.015052223 -0.016000098 2.7866674e-05 0.00016960621
-10.43428 -2.9389541 -0.18879905 -0.61278528 0.0032299743 0.0029974645
21.363056 8.5405827 -1.7384756 1.1822158 -0.86830652 -0.20463324
57000000 0.57582557 -0.40265268 0.014815832 -0.015646746 -7.8896934e-05 2.9909083e-05
-10.492864 -2.8627048 -0.192332 -0.61224735 0.0030053037 0.0027854291
21.447031 8.2833109 -1.7238262 1.1780527 -0.86537468 -0.19922282
58000000 0.57032263 -0.40723181 0.014258415 -0.01550178 -3.5091263e-05 0.00014491883
-10.597801 -2.7575183 -0.20551898 -0.61095917 0.0034128709 0.0027569933
21.86091 8.3212929 -1.7167932 1.194965 -0.87410462 -0.20059386
59000000 0.56447148 -0.4055053 0.014315511 -0.015737478 0.00016775237 3.5145069e-05
-10.578533 -2.6363807 -0.20957613 -0.59660935 0.0035604441 0.0028883887
22.079311 7.5624847 -1.6695271 1.1811084 -0.8696577 -0.18970226
60000000 0.56093961 -0.40300798 0.013798228 -0.01545404 7.4621545e-05 -3.0314059e-05
-10.627632 -2.5115643 -0.21966064 -0.59347832 0.0038383126 0.0030710471
22.152128 7.5615687 -1.665912 1.1692361 -0.87427235 -0.19310296
61000000 0.55801028 -0.4085919 0.013933856 -0.015327131 2.9858173e-05 -7.8035999e-05
-10.712488 -2.5058103 -0.22709608 -0.59201437 0.0036002754 0.0027688036
22.285471 7.2070494 -1.6265568 1.1881256 -0.87339729 -0.18389651
62000000 0.55586058 -0.41378808 0.013781635 -0.015159589 0.00027286407 -9.1229856e-05
-10.853199 -2.3674767 -0.23676923 -0.59147376 0.0034913383 0.0031272182
22.523468 7.2343993 -1.6311345 1.169964 -0.87417114 -0.19078271
63000000 0.549887 -0.41304201 0.013372822 -0.01498246 9.3203882e-05 -0.00049960578
-10.832787 -2.1544027 -0.24564305 -0.58210129 0.0038021058 0.0027197134
22.658403 6.8205643 -1.6040134 1.1529882 -0.87227559 -0.18667361
64000000 0.54747623 -0.41510314 0.013314426 -0.014894547 -0.00033484231 -0.00012267577
-10.930698 -2.1491637 -0.25120836 -0.57908076 0.0036363057 0.0027274452
22.722071 6.5499487 -1.5751803 1.1658089 -0.87355047 -0.17611647
65000000 0.54320741 -0.41956615 0.012972343 -0.014564384 6.8768575e-05 -0.00010387568
-10.955374 -2.0553505 -0.25580209 -0.57380617 0.0033350261 0.0026995214
22.939135 6.4080071 -1.5769477 1.1518011 -0.88026679 -0.18042356
66000000 0.53952277 -0.42164159 0.012806723 -0.014483256 -0.00017876516 0.00024110527
-11.053065 -1.9263852 -0.26693702 -0.57478511 0.0034376713 0.003165449
23.0655 6.2333188 -1.5577476 1.1598047 -0.87536627 -0.17652306
67000000 0.53403252 -0.4207333 0.012609836 -0.014203191 -0.0001191408 0.00013315411
-11.040692 -1.7784734 -0.2691547 -0.56812197 0.0038905411 0.0032117474
23.221972 5.9750652 -1.5538681 1.1363446 -0.87781984 -0.17602473
68000000 0.5303247 -0.42613238 0.012322221 -0.014275271 0.00038076358 0.0003244578
-11.125217 -1.6577983 -0.28000844 -0.56142014 0.0041726381 0.0033946345
23.445965 5.7497864 -1.52601 1.1403517 -0.87916487 -0.17298013
69000000 0.52679527 -0.42540479 0.012206391 -0.013819435 0.00031518418 -0.00020888133
-11.129897 -1.5783398 -0.28826565 -0.55523372 0.0039793677 0.003060963
23.558632 5.4056578 -1.4998326 1.1475562 -0.87911439 -0.16756001
70000000 0.52508748 -0.42640117 0.011980393 -0.013916271 -3.5117868e-05 0.00019780858
-11.178081 -1.4975653 -0.29174548 -0.5558567 0.0038249246 0.0032306719
23.494774 5.1646671 -1.4937236 1.1418746 -0.87982631 -0.16660652
71000000 0.52401453 -0.43069646 0.012341508 -0.013626096 -2.3068969e-06 9.6038755e-05
-11.224786 -1.4358397 -0.29526606 -0.55036116 0.0038545663 0.0031509206
23.61936 4.8435893 -1.4707426 1.1359313 -0.88111961 -0.15920803
72000000 0.51713389 -0.43003809 0.011953205 -0.013527349 9.7425327e-05 -0.0001303474
-11.208628 -1.2680092 -0.30440426 -0.5412848 0.004087599 0.0029369141
23.768204 4.6022644 -1.4520757 1.1259452 -0.8799175 -0.16049519
73000000 0.51224178 -0.4335461 0.011806075 -0.013491206 0.00020548409 -0.00018088805
-11.306365 -1.1540017 -0.31130326 -0.54119366 0.004299785 0.0029570097
23.831345 4.3001413 -1.4354764 1.1223431 -0.8787514 -0.15523016
74000000 0.51184827 -0.43510288 0.01160035 -0.013089184 0.00010688323 -0.00010157013
-11.301518 -1.0728397 -0.31449997 -0.53544414 0.0043370798 0.0032288053
23.893841 4.171628 -1.4268501 1.1136231 -0.87943995 -0.15373427
75000000 0.50849652 -0.43746519 0.011379146 -0.012922036 0.00023941428 -0.00014650852
-11.322414 -1.0548878 -0.31296682 -0.53458798 0.0041148276 0.0030565313
23.836643 4.0962906 -1.4326061 1.0988141 -0.87794137 -0.15669569
76000000 0.50454652 -0.43670881 0.011374509 -0.012478515 0.00013654053 1.0436444e-05
-11.341625 -0.8925333 -0.32525963 -0.5275625 0.0040416117 0.003260314
24.028248 3.6407385 -1.3994967 1.1140175 -0.88160849 -0.15082976
77000000 0.50114709 -0.4379122 0.011182136 -0.012768958 -0.00023516369 0.00024167509
-11.33819 -0.78047228 -0.32568479 -0.52205557 0.0036927159 0.0036085518
23.891443 3.5341425 -1.3956411 1.0780592 -0.87790334 -0.15756387
78000000 0.49828601 -0.44559312 0.011192333 -0.012497011 1.0026357e-05 -0.00023555792
-11.390951 -0.69179249 -0.33639726 -0.51889729 0.0043538306 0.0031233409
24.412209 3.2688932 -1.3856556 1.1058615 -0.87816703 -0.15372887
79000000 0.49459964 -0.44223467 0.010935868 -0.012582863 -0.00035510131 -0.00011948735
-11.398888 -0.60182428 -0.33852941 -0.51632345 0.0040094224 0.003227998
24.33831 3.1876011 -1.3835105 1.0917368 -0.88135505 -0.15152118
80000000 0.49160016 -0.44471946 0.011119746 -0.01218293 7.8626865e-05 0.00011872593
-11.458351 -0.47533226 -0.34487644 -0.51531416 0.0043430193 0.0034922373
24.200438 2.8618755 -1.360738 1.0860567 -0.88192594 -0.14780369
81000000 0.48920774 -0.44471359 0.010550214 -0.011977233 -4.8487949e-05 -1.4757134e-05
-11.418835 -0.38118601 -0.34938094 -0.50755662 0.0044840029 0.0032755577
24.40226 2.6979141 -1.3503028 1.0779827 -0.88330621 -0.14819083
82000000 0.48699629 -0.4483794 0.010671958 -0.01217182 2.921301e-05 0.00033556481
-11.451924 -0.35485888 -0.34955055 -0.50585926 0.0041594515 0.003542108
24.343742 2.4446564 -1.3424426 1.0720277 -0.88314754 -0.14598626
83000000 0.48319697 -0.45071769 0.010356633 -0.012039637 0.00011480173 8.739312e-05
-11.454155 -0.19900656 -0.35862571 -0.50148541 0.0044061402 0.003623256
24.478531 2.3380775 -1.3262883 1.0751137 -0.88182378 -0.14028843
84000000 0.48196948 -0.44998839 0.010430225 -0.011170713 -4.1054351e-05 0.00018748143
-11.435276 -0.20000696 -0.35600674 -0.4943845 0.0042139338 0.0037857466
24.444994 1.886591 -1.319535 1.0593076 -0.8851549 -0.1425672
85000000 0.47678399 -0.45575732 0.010345783 -0.011703981 0.00032474613 -0.00015287159
-11.505629 -0.032141209 -0.36459529 -0.49363127 0.0047368445 0.0033226041
24.690001 1.7738371 -1.3155799 1.0630097 -0.88748205 -0.14118049
86000000 0.47677782 -0.45632708 0.010191999 -0.011515451 -6.5226435e-05 -4.0551367e-05
-11.524327 -0.024871111 -0.36536834 -0.49420434 0.0044143051 0.0034858705
24.381275 1.5735002 -1.3053319 1.0555539 -0.88236028 -0.13510875
87000000 0.47444808 -0.45858407 0.010286964 -0.010931403 6.8935515e-06 3.3563701e-05
-11.536433 0.089165688 -0.37251925 -0.48831043 0.0043592714 0.0032629615
24.572702 1.376946 -1.2954433 1.0530702 -0.8877731 -0.13536853
88000000 0.46870336 -0.46209058 0.0099878907 -0.011275415 9.2375281e-05 0.00032549389
-11.50272 0.22665656 -0.37569374 -0.48203588 0.0044074086 0.0036259328
24.471762 1.0701702 -1.2656299 1.0351559 -0.88012022 -0.13288563
89000000 0.46491101 -0.45943889 0.0098321903 -0.010773668 -5.1002186e-05 0.00017527321
-11.449276 0.32968092 -0.37918359 -0.47643161 0.0041564633 0.0035536047
24.910744 0.80413055 -1.2782515 1.0490479 -0.89002496 -0.13735349
90000000 0.46110672 -0.46316242 0.0097844722 -0.011106367 -0.00024104276 -0.00013742076
-11.490204 0.38715631 -0.38195828 -0.47774574 0.0043585505 0.003537012
24.594452 0.7946943 -1.2699659 1.0335077 -0.8816219 -0.13631374
91000000 0.45751315 -0.46663916 0.0097039379 -0.010672492 3.2117736e-05 -3.1731954e-05
-11.53266 0.48054934 -0.38593942 -0.47336671 0.004483724 0.0035621969
24.67135 0.59251153 -1.2584832 1.019933 -0.8819167 -0.1346983
92000000 0.45653743 -0.46837986 0.0095307073 -0.010799242 -5.523771e-05 1.8570321e-05
-11.515876 0.53271127 -0.38776645 -0.46911353 0.0044815815 0.0030400215
24.66304 0.33383894 -1.2470872 1.0160021 -0.88295782 -0.13539642
93000000 0.45509851 -0.47044712 0.0096243769 -0.01044748 0.00024742974 -3.0662908e-05
-11.564144 0.61065328 -0.39082712 -0.46888506 0.0048914142 0.0037456893
24.625694 0.064807177 -1.2343365 1.0208943 -0.8850143 -0.12705779
94000000 0.45358041 -0.47334498 0.0094132647 -0.010418023 3.7522441e-05 -0.00010549506
-11.508122 0.70295644 -0.39543182 -0.46375918 0.0046180957 0.0036577708
24.9013 -0.060286522 -1.2383643 1.0252149 -0.88994408 -0.1315628
95000000 0.44611859 -0.47152328 0.0096079558 -0.010308864 8.2788494e-05 -0.00012797595
-11.463976 0.78687906 -0.39634559 -0.45746815 0.0048727253 0.0033499708
24.712852 -0.38977146 -1.2188054 1.0076991 -0.88632715 -0.12588987
96000000 0.44498748 -0.47729933 0.0093261227 -0.010127647 4.8018708e-05 0.00012870654
-11.52602 0.87978458 -0.40050286 -0.45806259 0.0048213145 0.0036743856
24.819458 -0.44471264 -1.2220995 1.0086646 -0.89035022 -0.12781841
