!Keysight Technologies,N5244B,MY57181157,A.18.40.03
!Date: Wednesday, September 10, 2025 10:43:51
!Correction: S11(C  3-Port  ) 
!S12(C  3-Port  ) 
!S13(C  3-Port  ) 
!S21(C  3-Port  ) 
!S22(C  3-Port  ) 
!S23(C  3-Port  ) 
!S31(C  3-Port  ) 
!S32(C  3-Port  ) 
!S33(C  3-Port  ) 
!S3P File: Measurements: <S11,S12,S13>,
!<S21,S22,S23>,
!<S31,S32,S33>:
# Hz S  RI   R 50
10000000 0.88930702 -0.16608593 0.040952645 -0.011576911 0.00032937623 -0.00049588748
-1.7550085 -3.7355189 0.71288127 -0.39615652 0.0045993086 -0.0093986588
-1.4187973 7.7930217 -3.0568531 -1.2039206 -0.27019373 -0.82536149
11000000 0.87899721 -0.18025678 0.040775225 -0.01153782 0.00013032478 -0.00017004258
-1.9959722 -4.0226645 0.69505715 -0.42750505 0.0040811305 -0.008251966
-1.0123889 8.9325409 -3.225225 -1.0639675 -0.33758461 -0.80234063
12000000 0.87505496 -0.19429788 0.040021852 -0.012299586 0.00085518474 -7.8346638e-06
-2.2923899 -4.2885299 0.66390926 -0.45999184 0.0037918247 -0.007880263
-0.42021179 10.053623 -3.3583155 -0.82553101 -0.40807468 -0.77950019
13000000 0.86447072 -0.20904633 0.039079845 -0.013211011 0.0003340423 -7.5283475e-05
-2.5864727 -4.4811697 0.63814229 -0.48288786 0.0027808081 -0.0060219397
0.029572487 10.869076 -3.3949969 -0.7567426 -0.44055301 -0.75107121
14000000 0.85775006 -0.21528897 0.038453676 -0.014289129 2.2513937e-05 -0.00039141838
-2.8013921 -4.6742668 0.61424434 -0.49972454 0.0027700434 -0.0059808241
0.74562168 11.578835 -3.4514475 -0.56044221 -0.4922356 -0.72380972
15000000 0.8494885 -0.22668904 0.037480071 -0.014623906 -0.00013034251 -0.00026724621
-3.1420016 -4.824367 0.58915454 -0.52135789 0.001856274 -0.0056378301
1.5009766 12.394407 -3.4932847 -0.44436562 -0.52723503 -0.69340062
16000000 0.83491337 -0.23750338 0.036497399 -0.015791889 1.0768563e-06 0.00035011975
-3.4535301 -4.9598122 0.55235118 -0.54532862 0.00095356605 -0.0047779987
2.5678806 13.287814 -3.5375164 -0.22453964 -0.57193869 -0.67239964
17000000 0.82909948 -0.2471267 0.036779583 -0.016212124 0.00040828343 0.00021226816
-3.6872663 -5.1722722 0.5401538 -0.56548131 0.0011021727 -0.0046359692
3.0261803 13.757104 -3.5328722 -0.10629666 -0.59616399 -0.63758165
18000000 0.82009649 -0.26123953 0.035692818 -0.016602024 0.00021366206 -0.00012052427
-3.9718168 -5.286962 0.50926811 -0.58073699 0.00092245452 -0.004233194
3.8306546 14.444888 -3.5259485 0.028005719 -0.62340909 -0.61024183
19000000 0.81041771 -0.26633155 0.034642354 -0.017174965 0.00063099561 -0.00018613103
-4.2635427 -5.3270488 0.47994298 -0.58783728 0.0013327512 -0.0034636571
4.8703337 14.604176 -3.4733024 0.16120613 -0.64725804 -0.5813942
20000000 0.80374908 -0.27433538 0.033827584 -0.017231366 0.00042209291 0.00016837755
-4.5046182 -5.4393263 0.45566297 -0.5992496 0.0014842169 -0.0029383623
5.605567 14.995613 -3.448669 0.2591933 -0.66244441 -0.56263709
21000000 0.79382342 -0.28803766 0.033215523 -0.017689904 0.00015429786 -0.00033395179
-4.8407936 -5.5965319 0.43452686 -0.62314099 0.0015858694 -0.0021901403
6.3481202 15.740574 -3.4658947 0.36110663 -0.68086219 -0.54874057
22000000 0.78836077 -0.29255348 0.032884322 -0.0176869 0.00037580042 0.00040222262
-5.0806398 -5.597456 0.4118126 -0.62751448 0.00098292646 -0.0022252558
7.1928549 15.763531 -3.4102604 0.45203614 -0.69728422 -0.52090704
23000000 0.77536821 -0.29303357 0.030590942 -0.018100705 0.00052045746 -0.00020116469
-5.3235846 -5.602191 0.38082713 -0.63571453 0.0014663041 -0.0017815654
8.0432482 16.085659 -3.370914 0.53287143 -0.71358907 -0.50750995
24000000 0.7680372 -0.3058919 0.030549353 -0.017921351 0.00021829213 -0.00014443144
-5.5951018 -5.730763 0.36170614 -0.64410675 0.00040583336 -0.0022407232
8.4758291 16.332376 -3.3144133 0.58036792 -0.71233636 -0.49550608
25000000 0.75954586 -0.30993682 0.030116938 -0.018742669 -0.00010557414 -4.193727e-05
-5.8889732 -5.7428155 0.33508104 -0.65426707 0.00095772522 -0.0010753289
9.574482 16.481647 -3.2696929 0.70013237 -0.73463351 -0.46874368
26000000 0.74964333 -0.31770536 0.029370368 -0.01969862 -0.000126161 0.00010602627
-6.1896448 -5.7546039 0.30896354 -0.66608751 0.00060217344 -0.00093205948
10.309521 16.742147 -3.2290213 0.75895905 -0.74032432 -0.45901227
27000000 0.74108714 -0.32389784 0.029283118 -0.019097157 0.00021835376 -0.0001090619
-6.422513 -5.7525563 0.28606969 -0.66323686 0.00063811737 -0.00046264805
11.154202 16.658558 -3.15591 0.8091107 -0.74938971 -0.44361329
28000000 0.73398769 -0.32832101 0.027915655 -0.019130517 -0.00011567518 -0.00020644951
-6.6710958 -5.7480464 0.26118481 -0.66951382 0.0017534328 -0.00062839757
11.809175 16.593502 -3.0809088 0.87567484 -0.75153327 -0.43034098
29000000 0.7236501 -0.33069742 0.027514502 -0.019469284 0.00015819416 3.1308722e-05
-6.9187598 -5.6376276 0.23660207 -0.66949207 0.0012131807 -0.00016262938
13.07682 16.91254 -3.1003017 0.95382541 -0.77227789 -0.42276928
30000000 0.71935672 -0.33480668 0.02720324 -0.018674668 0.00020958703 -0.00034591637
-7.1027031 -5.6889534 0.22523524 -0.67582858 0.0012093246 0.00030814129
13.197979 16.710802 -3.0300565 0.9511379 -0.77139348 -0.40589306
31000000 0.70912778 -0.34293628 0.026090091 -0.019112464 -0.00014363271 0.00045016984
-7.4075832 -5.6736684 0.19951174 -0.68240839 0.0013696703 0.0004984017
14.088984 16.684652 -2.9636497 1.0222449 -0.77663082 -0.39403424
32000000 0.70038611 -0.34937435 0.0257726 -0.019057436 1.9769239e-05 0.00015995221
-7.6305466 -5.5803013 0.17412338 -0.67951477 0.0014713859 0.0006282847
14.77086 16.806564 -2.9366224 1.0446444 -0.78448975 -0.38573706
33000000 0.69389439 -0.34936112 0.025064072 -0.019216392 4.3084077e-05 -1.2863841e-05
-7.790905 -5.4974947 0.16300422 -0.67813706 0.0015805432 0.00077533029
15.299374 16.35837 -2.8790154 1.0615007 -0.78896379 -0.3748998
34000000 0.68661582 -0.35706332 0.024763854 -0.019395649 -0.00027405471 0.00045236992
-8.0590448 -5.4772258 0.14106733 -0.68100101 0.002014467 0.00087191479
15.883235 16.635265 -2.8567798 1.08322 -0.7915448 -0.37081194
35000000 0.68008876 -0.35585666 0.023652254 -0.018926417 -0.00026641943 -8.7249631e-05
-8.2315416 -5.3685322 0.11879521 -0.67516005 0.0024630872 0.0009485269
16.629297 16.229691 -2.7740343 1.1140733 -0.79181588 -0.35630575
36000000 0.67056823 -0.36053541 0.023122445 -0.019634936 0.00031253969 -0.00031524582
-8.4605379 -5.3210821 0.10357143 -0.67969835 0.0017750502 0.0013652944
17.173756 16.084045 -2.7277007 1.1536434 -0.80167812 -0.34566215
37000000 0.6638332 -0.3614296 0.022514977 -0.0189158 -0.00016845559 1.3112098e-05
-8.6399097 -5.1935096 0.08298552 -0.67687327 0.0019908918 0.0013895964
17.751465 15.808332 -2.6835513 1.1610422 -0.80151898 -0.34078273
38000000 0.65454495 -0.36416632 0.022360697 -0.019135419 0.00053358678 0.00021991067
-8.8141928 -5.1258864 0.064678282 -0.6769374 0.0020582068 0.0013571089
18.455547 15.581089 -2.6353559 1.2095573 -0.8074941 -0.32752201
39000000 0.64755446 -0.36661932 0.021646403 -0.019053712 -0.00023949509 -0.00012211733
-8.9787273 -5.0505128 0.051312014 -0.67479324 0.0019575604 0.0011590313
18.927443 15.554983 -2.608321 1.2168715 -0.8124913 -0.32301268
40000000 0.64133143 -0.37271333 0.021104667 -0.01888408 9.1816488e-05 0.00039791962
-9.1676636 -4.9172421 0.0315485 -0.6725204 0.0019803848 0.0016788591
19.283354 15.359222 -2.5604928 1.193265 -0.80930382 -0.31771392
41000000 0.63680184 -0.37483716 0.020540494 -0.018833539 0.00036537039 -0.0001548018
-9.3148727 -4.8468361 0.014966935 -0.66842562 0.0020443089 0.0012191779
19.898909 15.134186 -2.5154724 1.2186922 -0.81055081 -0.31265742
42000000 0.62960595 -0.37657934 0.020640893 -0.018557329 0.00026569355 -0.00024225363
-9.4777441 -4.7952452 0.0012969077 -0.66613239 0.0025496366 0.0015748163
20.475353 14.995577 -2.487041 1.2555404 -0.81966895 -0.30787808
43000000 0.62204576 -0.37994179 0.020208215 -0.018869802 4.7422247e-05 -0.00011770277
-9.6989975 -4.6634789 -0.018081874 -0.66699004 0.0022796942 0.0018912553
21.199993 14.689537 -2.4423537 1.2864189 -0.8243739 -0.29332814
44000000 0.61791611 -0.37749901 0.019349178 -0.018328639 0.00022850498 0.00016423638
-9.7332697 -4.5448666 -0.030407816 -0.65564358 0.0030013938 0.0023717899
21.711164 14.244834 -2.4087088 1.3001194 -0.83111608 -0.29172531
45000000 0.61339259 -0.38426653 0.019045221 -0.018693859 0.00037485515 0.00015651068
-9.8827066 -4.4649048 -0.042694807 -0.65057987 0.0032379413 0.0019537604
21.807869 14.006804 -2.3436456 1.2652153 -0.82370126 -0.28741452
46000000 0.60454017 -0.38608563 0.018059816 -0.018086003 0.00029515749 -0.00021740336
-10.088972 -4.2918339 -0.060747474 -0.65275484 0.0024889866 0.0022553364
22.274065 13.859844 -2.323158 1.2815104 -0.82424581 -0.27795926
47000000 0.60433042 -0.38589332 0.01841132 -0.018023513 -6.1333696e-05 -0.00014093799
-10.140093 -4.2533064 -0.064295024 -0.64943671 0.0029166518 0.001989847
22.434578 13.445267 -2.2963405 1.2745575 -0.8285383 -0.27267665
48000000 0.59725285 -0.38649738 0.018117612 -0.017726233 7.6075834e-05 -6.0426915e-05
-10.279627 -4.1407413 -0.078803629 -0.64251053 0.0026661442 0.0022150218
22.971611 13.055954 -2.247776 1.2965014 -0.831478 -0.26500341
49000000 0.59194505 -0.39132464 0.017688984 -0.017858515 1.5655751e-05 4.3217151e-05
-10.425209 -4.0440626 -0.090575457 -0.64414406 0.002628467 0.0023156616
23.382183 13.000313 -2.24102 1.3052766 -0.83522367 -0.2629675
50000000 0.58648527 -0.39307654 0.017130557 -0.017415244 0.00031275942 9.2200498e-05
-10.537692 -3.9491525 -0.098901033 -0.63595861 0.0026388923 0.0023331139
23.483521 12.772493 -2.2034357 1.2732857 -0.83327293 -0.26106739
51000000 0.58111036 -0.3980774 0.017427946 -0.017603867 -0.00011095694 6.6801324e-05
-10.679218 -3.7655687 -0.1197616 -0.63405949 0.0031574157 0.0022002801
24.197884 12.464537 -2.1689541 1.2935742 -0.83515084 -0.25732359
52000000 0.57799453 -0.39496577 0.016589146 -0.016821353 0.00014535878 1.21421e-05
-10.759365 -3.7015009 -0.12393725 -0.62679672 0.0031225546 0.00239179
24.365788 12.0916 -2.1389518 1.2896395 -0.83685797 -0.25019884
53000000 0.57281202 -0.39890566 0.016265616 -0.017210927 0.00020144929 0.00010117059
-10.898992 -3.5583115 -0.13762423 -0.62419456 0.0032443427 0.0023843935
24.754505 11.766417 -2.0970297 1.2969806 -0.83859622 -0.24294627
54000000 0.56949484 -0.40047395 0.016009264 -0.016723206 2.8104412e-05 -9.7049167e-05
-10.988354 -3.4785571 -0.14783356 -0.6211096 0.003617249 0.0025506741
25.016685 11.734266 -2.0929806 1.2904501 -0.84081721 -0.24552095
55000000 0.56255126 -0.39843994 0.015886091 -0.016831009 -0.00016406922 9.5844865e-05
-10.980837 -3.3080785 -0.15808478 -0.61178464 0.0031705475 0.0026524598
25.440323 11.32408 -2.065033 1.2972354 -0.8454743 -0.24086975
56000000 0.55889869 -0.40556034 0.016254695 -0.016334243 5.4446624e-05 -0.00016677867
-11.146139 -3.2000091 -0.16968006 -0.60742748 0.0035891635 0.0027847744
25.539648 10.754601 -2.0133615 1.285651 -0.84428638 -0.23373938
57000000 0.5571844 -0.40718773 0.015178844 -0.016334346 0.00010061619 1.8143635e-05
-11.209725 -3.1167061 -0.17264214 -0.60595971 0.0031746812 0.0028189605
25.657522 10.435429 -1.9974256 1.2814001 -0.84162074 -0.22772516
58000000 0.55189371 -0.41132525 0.014933462 -0.01599692 -0.00017449184 -9.8829296e-06
-11.320831 -3.0080223 -0.18560372 -0.60534763 0.0037507138 0.0028952756
26.147968 10.49407 -1.9897691 1.3007914 -0.84952205 -0.22921987
59000000 0.54571635 -0.4091579 0.014592354 -0.015901854 6.4307965e-06 -0.00018154178
-11.304975 -2.8764682 -0.19048691 -0.59121925 0.0033658841 0.0023662602
26.449005 9.5750971 -1.9356289 1.2874306 -0.84618556 -0.21837842
60000000 0.5421105 -0.40698007 0.014542451 -0.01601591 2.9646577e-05 0.00041435697
-11.358636 -2.7437549 -0.19947948 -0.58815432 0.003463838 0.0029390471
26.53611 9.5660534 -1.9331387 1.2743322 -0.85065526 -0.22115299
61000000 0.5390532 -0.41234797 0.01405654 -0.015928175 0.00020107492 -6.8033274e-05
-11.449507 -2.7344635 -0.20799659 -0.58697742 0.0040152259 0.0025317064
26.712946 9.1339941 -1.8889062 1.2976168 -0.8501997 -0.21189046
62000000 0.53652632 -0.41689005 0.013913172 -0.015524369 6.9659276e-05 5.2361531e-05
-11.603048 -2.5866289 -0.21777892 -0.58584869 0.0037915655 0.0032435486
27.004162 9.1573229 -1.8923769 1.2776458 -0.85052413 -0.21834351
63000000 0.53088832 -0.41590393 0.013825956 -0.015383763 9.7302225e-05 2.2164853e-05
-11.586106 -2.3598876 -0.22601369 -0.57663131 0.0035040881 0.0028570315
27.188108 8.6602926 -1.8613576 1.2593768 -0.84875911 -0.21342063
64000000 0.52866638 -0.41786897 0.013698252 -0.015442827 0.00040217408 1.0514967e-05
-11.689354 -2.354517 -0.23116943 -0.57458001 0.0040545226 0.0032219905
27.276665 8.3291302 -1.8299351 1.2755117 -0.85128218 -0.2028608
65000000 0.52394962 -0.4215759 0.01347433 -0.015229315 1.1109085e-05 0.00027912974
-11.715137 -2.2532129 -0.23597528 -0.5686124 0.0035844548 0.0029409805
27.530861 8.1538076 -1.8313512 1.2590625 -0.85750288 -0.20689845
66000000 0.52022064 -0.42395532 0.013363756 -0.01512559 -6.2733809e-05 0.00021649711
-11.821851 -2.1174457 -0.24703014 -0.56986147 0.0038562119 0.0025854656
27.699902 7.9394054 -1.8099582 1.2693657 -0.85278308 -0.20256796
67000000 0.5146066 -0.42233157 0.01311383 -0.014715193 -5.3077558e-05 -0.0001266582
-11.812534 -1.9582837 -0.24937187 -0.56314915 0.0040181242 0.0029766012
27.895685 7.6269341 -1.8048306 1.2431715 -0.85525417 -0.2014464
68000000 0.51044583 -0.42769963 0.012968153 -0.014796372 2.6875725e-05 -3.5526436e-06
-11.900689 -1.8286433 -0.26017797 -0.55697638 0.0043015019 0.003296108
28.170757 7.3470135 -1.7741249 1.2492361 -0.85684997 -0.19854566
69000000 0.5074234 -0.42714259 0.012818238 -0.014175603 4.4142078e-05 -0.00011800173
-11.911795 -1.7423718 -0.26770967 -0.55094546 0.0037056787 0.0026722385
28.328814 6.9313011 -1.7444915 1.2581522 -0.85706866 -0.19276032
70000000 0.5056842 -0.42782718 0.012477431 -0.014237348 2.3033681e-05 6.6239059e-05
-11.961693 -1.6569648 -0.27223772 -0.55066305 0.0043564904 0.0032139102
28.252714 6.6332655 -1.7378124 1.2521783 -0.85790521 -0.19172013
71000000 0.50410146 -0.43161696 0.012588118 -0.01407004 -4.2252959e-05 0.00011908609
-12.014194 -1.5887632 -0.27558166 -0.545048 0.003923886 0.0029183973
28.420834 6.2411957 -1.711741 1.2475017 -0.8596822 -0.18420818
72000000 0.49702132 -0.43060595 0.012175341 -0.013936127 1.2630771e-06 -0.00036418304
-11.997574 -1.4102983 -0.28432527 -0.53645462 0.0040085413 0.0029617257
28.602665 5.944808 -1.6898445 1.2358046 -0.85854292 -0.18386641
73000000 0.49287105 -0.43407652 0.012253485 -0.013676018 -0.00014443402 0.00015470573
-12.103966 -1.2903423 -0.29100168 -0.53672183 0.0044059614 0.0033510642
28.692947 5.5837669 -1.6716634 1.233027 -0.8570776 -0.17923832
74000000 0.49171346 -0.43551812 0.012288131 -0.013696156 -5.5734366e-05 0.00027705816
-12.098413 -1.2020693 -0.29432398 -0.53128654 0.0042813243 0.0035079538
28.773989 5.4189081 -1.6620966 1.2235868 -0.8582288 -0.177513
75000000 0.48925042 -0.43715635 0.011647321 -0.013636779 7.191331e-05 -2.2607965e-06
-12.122701 -1.1820259 -0.29292858 -0.53008789 0.0043382291 0.0036589499
28.708719 5.3147211 -1.6678668 1.2071705 -0.8563745 -0.17969549
76000000 0.48499271 -0.43649814 0.011710984 -0.013249954 0.0001615025 0.00025121466
-12.143856 -1.0082874 -0.30460525 -0.52305686 0.0046683243 0.0032728701
28.951279 4.7670164 -1.6312312 1.2254915 -0.86057037 -0.1742323
77000000 0.48097992 -0.43742621 0.011391873 -0.012754285 1.5061574e-05 -5.5290198e-05
-12.14301 -0.88701677 -0.30529988 -0.51642764 0.0041678818 0.0031673834
28.791336 4.6209354 -1.6251943 1.1845474 -0.85706764 -0.17990592
78000000 0.47863948 -0.44503969 0.01159411 -0.013352059 0.00040270609 0.0002633254
-12.201801 -0.78935719 -0.31629491 -0.51506531 0.0048748506 0.003100323
29.429813 4.3042078 -1.615137 1.2180948 -0.85794258 -0.17693508
79000000 0.47451124 -0.44147491 0.011556494 -0.012941281 0.00046170937 -2.3903791e-05
-12.208536 -0.6961565 -0.31762689 -0.51238734 0.0046102661 0.0032808525
29.336834 4.2047062 -1.6125265 1.2006755 -0.8607645 -0.17425147
80000000 0.47168654 -0.44341391 0.011328107 -0.012997525 -0.00025670906 0.00016403949
-12.274637 -0.5610857 -0.32461703 -0.51068592 0.0038496079 0.0034246435
29.180275 3.8056068 -1.5867163 1.1961565 -0.86009592 -0.17093818
81000000 0.46957666 -0.44375694 0.010882299 -0.012545624 4.6751753e-05 0.00053048454
-12.233601 -0.45939827 -0.32849801 -0.50340974 0.0045228954 0.0033918887
29.428432 3.6032162 -1.5747173 1.187932 -0.86271584 -0.17055103
82000000 0.46743673 -0.44749629 0.011151296 -0.013051319 0.00020448408 7.4484851e-06
-12.270457 -0.42752552 -0.32842427 -0.50210786 0.0051393327 0.0031169569
29.368504 3.2803993 -1.5654442 1.1804087 -0.86251724 -0.16734152
83000000 0.46360472 -0.44910002 0.010757091 -0.012423879 0.00015555392 3.7920057e-05
-12.276032 -0.2628684 -0.33774972 -0.49742675 0.0046090558 0.0032910123
29.542347 3.1578054 -1.5485663 1.1851935 -0.86170352 -0.16201159
84000000 0.46220219 -0.44788998 0.010537805 -0.01219993 0.00029320642 -7.3666277e-05
-12.254806 -0.26237798 -0.33559063 -0.4903692 0.004667222 0.0035747481
29.503767 2.6045771 -1.5394592 1.1683395 -0.86427575 -0.16342169
85000000 0.45725083 -0.45355737 0.010803428 -0.012188472 6.8516842e-05 -0.00011866117
-12.330046 -0.082063675 -0.34446657 -0.48961011 0.0046180049 0.003503775
29.79884 2.4631085 -1.5353019 1.1722333 -0.86712354 -0.16240664
86000000 0.45733005 -0.45427731 0.01052405 -0.011948882 7.0356626e-05 -0.0001607114
-12.352223 -0.073626757 -0.34425542 -0.48997608 0.0043104347 0.0037614629
29.438543 2.2097983 -1.5239496 1.1642179 -0.86274177 -0.15563983
87000000 0.45433161 -0.4559713 0.010084636 -0.01205463 0.00026407544 0.00015498637
-12.366034 0.045318007 -0.35217899 -0.48483467 0.0050549298 0.0036717146
29.667561 1.9812012 -1.5124831 1.1622648 -0.86793214 -0.15617064
88000000 0.4492031 -0.45930955 0.01035556 -0.011693927 -0.00011172955 6.2383609e-05
-12.333405 0.19841337 -0.35493615 -0.47836286 0.005008541 0.003466377
29.566107 1.5886528 -1.4788127 1.1426079 -0.86054397 -0.15364392
89000000 0.44553447 -0.45659119 0.010304733 -0.011479767 1.0192744e-05 8.6877175e-05
-12.279546 0.306027 -0.35797694 -0.47284424 0.0052336403 0.0036829184
30.096399 1.2826906 -1.4946784 1.1580236 -0.86962306 -0.1579348
90000000 0.4416703 -0.46004316 0.010064656 -0.011826776 -1.2100254e-05 -0.00013576522
-12.321734 0.36932546 -0.36095411 -0.47343603 0.0043771379 0.0038041824
29.716396 1.2509035 -1.4839715 1.1416918 -0.86128682 -0.15613489
91000000 0.43827602 -0.46347275 0.010020452 -0.011556809 -6.826553e-05 0.00011020969
-12.366435 0.46934745 -0.36532551 -0.46942508 0.0047967448 0.0036426727
29.80792 1.0019286 -1.4704771 1.1269633 -0.86261415 -0.15479402
92000000 0.43714112 -0.46429214 0.009703014 -0.011021709 5.2449261e-05 -0.00014219306
-12.349899 0.52640271 -0.36740482 -0.4654285 0.0042928443 0.0037821298
29.804214 0.68224287 -1.4581939 1.1222687 -0.8631205 -0.15480275
93000000 0.4358274 -0.4670963 0.01002148 -0.01093626 0.0002063479 0.00015655503
-12.40484 0.61263645 -0.36934114 -0.46467477 0.0049886876 0.0039829626
29.772526 0.34893942 -1.4437878 1.1284766 -0.86560011 -0.1467077
94000000 0.43454415 -0.46987593 0.0096187387 -0.011061538 9.80205e-05 1.2341516e-05
-12.346345 0.71128893 -0.37432578 -0.45977527 0.0055245426 0.0036077346
30.104372 0.20347214 -1.4486778 1.1334232 -0.87042654 -0.15182415
95000000 0.42714161 -0.46734151 0.0096980985 -0.010871211 -3.4486657e-05 3.4541419e-05
-12.298932 0.79990363 -0.37541524 -0.45350808 0.0050342241 0.0038659438
29.881527 -0.20135641 -1.4264861 1.1146021 -0.8667292 -0.14543536
96000000 0.42601508 -0.4734754 0.0097506652 -0.010880427 -0.00033934426 -9.8927412e-05
-12.365327 0.90221667 -0.37924877 -0.45463902 0.0049192561 0.0041179736
30.010029 -0.2764864 -1.4302757 1.1157485 -0.87049264 -0.14749461
