!Keysight Technologies,N5244B,MY57181157,A.18.40.03
!Date: Wednesday, September 10, 2025 10:37:37
!Correction: S11(C  3-Port  ) 
!S12(C  3-Port  ) 
!S13(C  3-Port  ) 
!S21(C  3-Port  ) 
!S22(C  3-Port  ) 
!S23(C  3-Port  ) 
!S31(C  3-Port  ) 
!S32(C  3-Port  ) 
!S33(C  3-Port  ) 
!S3P File: Measurements: <S11,S12,S13>,
!<S21,S22,S23>,
!<S31,S32,S33>:
# Hz S  RI   R 50
10000000 0.89070427 -0.16288957 0.041136868 -0.011273233 0.00040110829 -0.00031444916
-1.6965239 -3.6157625 0.70969003 -0.39937449 0.0038385582 -0.0079880347
-1.1016338 7.3222885 -2.9906027 -1.0641541 -0.33548066 -0.80478406
11000000 0.88042247 -0.17699179 0.04061152 -0.012855872 -0.00034460565 -0.00086288573
-1.9293807 -3.8912382 0.69237071 -0.43012494 0.003792366 -0.0077789924
-0.6923418 8.3499746 -3.1434965 -0.92521369 -0.39986712 -0.7789036
12000000 0.87702334 -0.19061938 0.039654933 -0.012823088 0.00022125535 -6.4156215e-05
-2.2185564 -4.1467943 0.66331708 -0.46267194 0.0026074143 -0.0079108067
-0.10933018 9.3499489 -3.2507634 -0.68784559 -0.46601397 -0.75031281
13000000 0.8672049 -0.20460624 0.039192501 -0.013612122 0.00027973717 0.0002968901
-2.5038233 -4.333993 0.63612312 -0.48547885 0.0021697439 -0.0066464916
0.31213427 10.080644 -3.280812 -0.62607253 -0.49372455 -0.72381765
14000000 0.86056781 -0.21028438 0.038459882 -0.014146745 -0.00035727877 -0.00033683097
-2.7105913 -4.5178695 0.61265856 -0.50213057 0.002144566 -0.0058425316
0.98833704 10.699831 -3.3206291 -0.43766403 -0.54270238 -0.6930005
15000000 0.85183167 -0.22307557 0.037406683 -0.014850766 0.00026486744 -0.00054322439
-3.040514 -4.6656685 0.58726013 -0.52476776 0.001779638 -0.0058696885
1.68993 11.425722 -3.3533552 -0.32742167 -0.57482409 -0.66327018
16000000 0.83777416 -0.23267698 0.036868673 -0.015400633 -0.00038446486 -4.7470996e-05
-3.3447576 -4.7942796 0.54990321 -0.54852331 0.0012358932 -0.0052593974
2.6961713 12.204046 -3.3829074 -0.11799955 -0.61670184 -0.63962704
17000000 0.83277947 -0.24283335 0.03599187 -0.01636323 -3.5608795e-05 1.6140475e-06
-3.5681944 -5.0001326 0.53722 -0.56896406 0.0011316258 -0.0041461503
3.1054394 12.615479 -3.3701987 -0.0087214708 -0.63684583 -0.60581261
18000000 0.82295984 -0.25634056 0.035426904 -0.016626328 2.0489344e-05 -0.00037528033
-3.8450227 -5.1079655 0.50703633 -0.58391768 0.00093605288 -0.0035148638
3.8496122 13.216587 -3.3562484 0.1160996 -0.66203237 -0.57895625
19000000 0.8137269 -0.26145756 0.034699719 -0.016924858 0.00025520596 -0.00015760578
-4.1279497 -5.1462727 0.47692287 -0.59223163 0.00062332943 -0.002728092
4.791934 13.328862 -3.3000572 0.23686075 -0.68316609 -0.54923624
20000000 0.80723333 -0.26934838 0.033438005 -0.017540721 -0.00015586865 -0.00034854576
-4.3599062 -5.2521567 0.45244196 -0.60390139 0.00079243968 -0.0032029666
5.4583464 13.667705 -3.2742827 0.32652199 -0.69651818 -0.53207767
21000000 0.79963541 -0.2826575 0.033350568 -0.018251002 -0.00028283265 0.00028587712
-4.6830826 -5.4045229 0.43145826 -0.62711358 0.00088943593 -0.0020103278
6.1411867 14.333129 -3.2860436 0.4225508 -0.71350706 -0.51745617
22000000 0.79232472 -0.28737244 0.032424223 -0.017421681 0.00016879919 -0.00019316087
-4.9165545 -5.405654 0.40842113 -0.6313259 0.00083971932 -0.0022277732
6.9013109 14.333202 -3.226536 0.50311846 -0.72845829 -0.49009329
23000000 0.78079236 -0.28817371 0.031239331 -0.017928794 0.00043511757 -0.00021392072
-5.150938 -5.4076567 0.37734109 -0.63997638 0.00086840137 -0.0020401864
7.6775923 14.607059 -3.18771 0.57762623 -0.74302459 -0.47792262
24000000 0.77370691 -0.30064195 0.030566761 -0.018598814 6.4053682e-05 -0.00029088664
-5.4120307 -5.5344138 0.35876757 -0.64789146 0.0012073772 -0.0013968481
8.05618 14.829317 -3.1345932 0.6198383 -0.74085861 -0.46741021
25000000 0.7653268 -0.30494067 0.030291572 -0.019007755 -9.9009165e-05 -9.2059643e-05
-5.6968837 -5.5426555 0.33102793 -0.65864921 0.0012477642 -0.00090154842
9.0565262 14.932416 -3.0864799 0.73128247 -0.76078427 -0.43988961
26000000 0.75501639 -0.31217605 0.029263355 -0.01888179 0.00026860132 7.0487185e-06
-5.9866652 -5.5516624 0.30462164 -0.66992092 0.0013378415 -0.0012674456
9.7210102 15.161824 -3.045027 0.78243101 -0.7664274 -0.43081322
27000000 0.74693954 -0.31893179 0.028451065 -0.018748358 -0.00026226981 -0.00039565921
-6.2117219 -5.5508227 0.2825515 -0.66744018 0.00088647986 -0.0002578033
10.482067 15.070844 -2.9728436 0.82759404 -0.77306229 -0.41623819
28000000 0.7396881 -0.32374984 0.027727807 -0.019335546 0.00039693047 -0.00013381381
-6.4492564 -5.5440912 0.25678685 -0.67289191 0.0013283329 -0.00037203223
11.060312 15.001187 -2.9003537 0.88769865 -0.77574402 -0.40342444
29000000 0.72977799 -0.32554582 0.027180351 -0.019181423 -0.00033303545 -0.00019901077
-6.6908255 -5.4356618 0.23269296 -0.6734587 0.0010858872 0.00028432981
12.228465 15.263651 -2.9177902 0.96054953 -0.79524153 -0.3955785
30000000 0.72692901 -0.33005419 0.026755169 -0.019072048 -0.00013961043 -1.1123422e-05
-6.8663692 -5.4891706 0.22037353 -0.6806742 0.0013251647 -0.00026186949
12.313358 15.095587 -2.8510165 0.95542884 -0.79432213 -0.38048366
31000000 0.71549517 -0.33762401 0.026045496 -0.019266507 0.00025884793 -4.8018119e-05
-7.1620913 -5.4703007 0.19532008 -0.68664414 0.0013900942 0.00056271488
13.121397 15.052107 -2.7867043 1.020278 -0.79860574 -0.36833826
32000000 0.70741719 -0.34461617 0.025528774 -0.019399013 0.00045987911 -1.0573021e-05
-7.3748155 -5.3818693 0.16923851 -0.68411434 0.0012384809 0.00063459034
13.734677 15.163615 -2.7610667 1.0394459 -0.80646592 -0.36150652
33000000 0.70097381 -0.34479225 0.024809856 -0.019405391 -0.00010111427 -0.00014583244
-7.529129 -5.3007607 0.15825549 -0.6830523 0.0013315821 0.0011574288
14.201038 14.742876 -2.7059669 1.0534018 -0.80956817 -0.35086435
34000000 0.69378048 -0.35188001 0.024455145 -0.019144351 -0.00013486356 0.0001638831
-7.7887487 -5.2794304 0.13585432 -0.68627197 0.0016925986 0.001040941
14.736591 14.994518 -2.6843982 1.0725832 -0.81210685 -0.34758174
35000000 0.68742979 -0.35145742 0.023466591 -0.018952051 -8.168647e-05 0.00019130383
-7.9542599 -5.173944 0.11342804 -0.6799373 0.0017547084 0.0010539807
15.400321 14.614044 -2.6053677 1.1005893 -0.81196648 -0.33347961
36000000 0.67908287 -0.35658279 0.023340236 -0.019115724 -0.00014472668 -0.00027922349
-8.1790266 -5.1274586 0.098365456 -0.68425393 0.0021367453 0.00095746951
15.895604 14.476509 -2.5604436 1.1356685 -0.82022965 -0.32352036
37000000 0.67224157 -0.35717812 0.022599909 -0.018990697 -0.00011680616 0.00026518697
-8.3477058 -5.0069923 0.077694237 -0.68128049 0.002012854 0.00109305
16.404934 14.223442 -2.5176549 1.1427069 -0.82034338 -0.31856686
38000000 0.66334713 -0.35881099 0.022089504 -0.019093778 0.00018893689 -3.569945e-05
-8.5172663 -4.9406466 0.058934912 -0.68137944 0.0018326252 0.0012979613
17.031721 14.001554 -2.4688144 1.1858721 -0.82528782 -0.30491745
39000000 0.6555661 -0.3625983 0.021170238 -0.0191957 0.00030118189 1.2142569e-05
-8.6824465 -4.8645067 0.045402408 -0.67938679 0.0019900706 0.001643867
17.471827 13.977518 -2.4440808 1.1915731 -0.83078611 -0.3009868
40000000 0.65039659 -0.36899871 0.021010896 -0.0190228 -0.00015474939 4.4980439e-05
-8.861165 -4.7292213 0.025609672 -0.6770702 0.0022834761 0.0014784611
17.783367 13.792658 -2.4002957 1.1678876 -0.8264389 -0.29721791
41000000 0.64574105 -0.37077987 0.021047644 -0.018833365 -3.2298689e-05 -0.0001295933
-8.9964514 -4.6633987 0.0093549788 -0.67293376 0.0025496127 0.0017929483
18.320597 13.583742 -2.3564887 1.1890016 -0.82741833 -0.29255539
42000000 0.63801503 -0.37294573 0.020331617 -0.018880825 0.00013559841 -0.00012815185
-9.1584482 -4.6147671 -0.0049895644 -0.66994095 0.002157609 0.0017710493
18.853348 13.457883 -2.3294449 1.2228532 -0.83680296 -0.28727591
43000000 0.63053936 -0.37598473 0.0193682 -0.018593082 5.5044475e-05 0.00017601914
-9.3690033 -4.4868131 -0.024720252 -0.67050469 0.0027059435 0.0020110551
19.494909 13.170602 -2.2845144 1.2503202 -0.8406074 -0.273036
44000000 0.62608486 -0.37392357 0.01915236 -0.018397877 0.00026919629 -5.1097159e-05
-9.3965492 -4.3674927 -0.036750108 -0.65988684 0.0023267251 0.0019329567
19.94977 12.751549 -2.2533402 1.2631408 -0.84712911 -0.27211794
45000000 0.62349594 -0.38105351 0.018789232 -0.018292332 -0.00011700801 0.00019899482
-9.5426617 -4.2948213 -0.048754841 -0.65438831 0.0025206273 0.0019065061
20.02841 12.554294 -2.1938555 1.2278121 -0.83922708 -0.26902989
46000000 0.61368638 -0.38289565 0.018784542 -0.01808076 0.00011296224 -0.00011702174
-9.7398033 -4.1263771 -0.066650033 -0.65736932 0.0026259753 0.002018539
20.441597 12.415203 -2.1741796 1.2432431 -0.84002602 -0.25895619
47000000 0.61347777 -0.38256893 0.018252527 -0.017894216 3.4289042e-06 0.00010373653
-9.7884703 -4.0904217 -0.070197761 -0.65310949 0.0026658671 0.0027916858
20.576195 12.041048 -2.1487515 1.234364 -0.84376156 -0.2542662
48000000 0.60588455 -0.38358247 0.017736571 -0.017810397 4.8642542e-05 0.00037855617
-9.9223814 -3.9816277 -0.084956974 -0.64596534 0.0030815916 0.0026283157
21.056408 11.684652 -2.1020458 1.254882 -0.84613192 -0.24647769
49000000 0.60204506 -0.38787085 0.017286794 -0.017442001 8.5918102e-05 3.2427677e-05
-10.064023 -3.8899543 -0.097314656 -0.64852607 0.0028488738 0.0021215326
21.430481 11.638865 -2.0962257 1.2624609 -0.84968323 -0.24497578
50000000 0.59640384 -0.38980642 0.016915943 -0.017188413 0.00016991628 -0.00022075107
-10.170198 -3.798337 -0.10574456 -0.64041096 0.0030177957 0.0020984677
21.51173 11.436617 -2.0611389 1.2310354 -0.84771121 -0.24309078
51000000 0.59114879 -0.39548838 0.0168391 -0.017552964 6.0027527e-05 -0.00010298438
-10.306831 -3.6211059 -0.12597169 -0.63756406 0.0027647545 0.0022262021
22.159508 11.151458 -2.0280778 1.2492789 -0.8496995 -0.24025822
52000000 0.58759171 -0.39227089 0.016409431 -0.017154368 0.00018276642 -6.3907362e-05
-10.381853 -3.5590096 -0.13046929 -0.63069165 0.0030805783 0.0024743665
22.29887 10.812664 -2.0000942 1.2455151 -0.85058796 -0.23393935
53000000 0.58280063 -0.39626229 0.016098581 -0.016836956 0.00026221853 0.00028783784
-10.517967 -3.4209418 -0.1440627 -0.62876338 0.0028059769 0.002403351
22.649864 10.51545 -1.9603913 1.251287 -0.8525632 -0.22647628
54000000 0.57880676 -0.39788783 0.015854353 -0.016225472 0.00010988727 0.00040181415
-10.601721 -3.3432479 -0.15442155 -0.62440181 0.0033442914 0.0024917785
22.885279 10.487409 -1.9568899 1.2449107 -0.85443115 -0.22912621
55000000 0.57272696 -0.39624229 0.01519389 -0.016303379 0.00019068232 -0.00029677156
-10.595657 -3.1770751 -0.16501069 -0.61574322 0.0037391018 0.0025006291
23.268864 10.110092 -1.9295595 1.2508341 -0.85954458 -0.22483678
56000000 0.56862122 -0.40270561 0.015351658 -0.016400628 -7.4568261e-06 -9.8273616e-05
-10.752778 -3.0763724 -0.17650431 -0.61098552 0.0032150326 0.0030158514
23.34322 9.6038666 -1.8812099 1.2392917 -0.85741454 -0.21789145
57000000 0.56774473 -0.40454596 0.015538367 -0.015865618 -0.00016746453 0.00014999868
-10.815562 -2.9992089 -0.17968044 -0.61044228 0.0033157847 0.0026425414
23.446125 9.3226128 -1.8658977 1.2347515 -0.85499454 -0.21215749
58000000 0.5618493 -0.40927863 0.014943437 -0.015841154 -9.8454271e-05 0.00027842168
-10.922346 -2.8888245 -0.19249015 -0.60927665 0.0032125553 0.0029664657
23.894978 9.3610125 -1.8594092 1.2524773 -0.86252934 -0.21369815
59000000 0.55625927 -0.40746057 0.014527299 -0.01590522 -8.369331e-05 0.00017928638
-10.905011 -2.7658491 -0.19774818 -0.595186 0.0035951987 0.0026396331
24.150721 8.533412 -1.8083192 1.2399035 -0.85902089 -0.20310175
60000000 0.55210948 -0.40510389 0.014470173 -0.01548628 -0.00018515278 -0.00015501543
-10.956967 -2.6352136 -0.20688704 -0.59209269 0.003469984 0.0030250291
24.233242 8.5238037 -1.8053349 1.2271178 -0.8640129 -0.20558131
61000000 0.54950804 -0.41016114 0.013971878 -0.015538618 -0.00011944112 0.00021539749
-11.044764 -2.6288748 -0.21420197 -0.59086174 0.0036026542 0.002836532
24.387302 8.1344204 -1.7629464 1.2475606 -0.86308092 -0.19709229
62000000 0.54700249 -0.41511333 0.014088588 -0.015432694 -2.8227918e-05 0.00015581827
-11.191882 -2.485038 -0.22429071 -0.58940679 0.0036048421 0.0031165285
24.651289 8.1591244 -1.7668726 1.2290698 -0.86347115 -0.20311202
63000000 0.54126227 -0.41438836 0.013693236 -0.01522506 0.00017349132 0.00011895182
-11.173838 -2.2663212 -0.23313172 -0.58039188 0.003675347 0.0028175749
24.808615 7.708251 -1.7383908 1.2113971 -0.86151189 -0.1988916
64000000 0.5389657 -0.41667736 0.013482829 -0.015016133 0.00019464818 -5.6478213e-05
-11.274681 -2.2613006 -0.23856801 -0.57815385 0.0034913886 0.0027903549
24.885206 7.4075603 -1.7081447 1.2254701 -0.86366564 -0.18780625
65000000 0.53453296 -0.42020625 0.013277501 -0.014979569 -0.00021167804 -2.7505474e-05
-11.300428 -2.1653678 -0.24316204 -0.57233685 0.0038487816 0.0033210805
25.119804 7.2546315 -1.7097199 1.2106271 -0.86951166 -0.19225015
66000000 0.53053033 -0.4228549 0.013264703 -0.014804223 -0.00014261264 -9.6692573e-05
-11.403709 -2.0309834 -0.25399625 -0.5737626 0.0035100968 0.0030032592
25.269997 7.0572643 -1.6901536 1.2198552 -0.86544341 -0.18866901
67000000 0.52547067 -0.42155722 0.013173902 -0.01465279 -0.00017311529 3.0023111e-05
-11.390751 -1.8784144 -0.25643277 -0.56695557 0.0037555934 0.0029051472
25.440714 6.7748294 -1.6853365 1.1945142 -0.86790353 -0.18768004
68000000 0.52121139 -0.42712989 0.012701249 -0.01483905 7.3390911e-05 0.00014190137
-11.478273 -1.7546768 -0.26728797 -0.56088668 0.003700241 0.0030227241
25.691687 6.5252028 -1.655654 1.2000003 -0.86894417 -0.18475127
69000000 0.5178808 -0.42637101 0.012679279 -0.014185205 0.00032679009 0.00011007235
-11.487021 -1.6701887 -0.27516174 -0.55462718 0.0040337951 0.0032019767
25.826914 6.1414061 -1.6276504 1.2079573 -0.8693614 -0.17975348
70000000 0.51614392 -0.42751488 0.012345439 -0.013866562 0.00026242674 0.00043128314
-11.5354 -1.5873063 -0.27946925 -0.5544908 0.0040054317 0.003596093
25.756592 5.8755708 -1.6209199 1.2019403 -0.87038255 -0.17830202
71000000 0.51469821 -0.43116373 0.012048185 -0.013873601 0.00010525478 -0.00017310059
-11.585528 -1.5222278 -0.2829881 -0.54894257 0.0040081297 0.0030580666
25.901899 5.5211239 -1.5958269 1.1963456 -0.87164545 -0.17062941
72000000 0.50781095 -0.4303326 0.011951975 -0.013873706 -2.0507287e-07 0.00013491487
-11.569747 -1.3499422 -0.29188433 -0.54054958 0.0040979115 0.003185869
26.068272 5.2527018 -1.5763686 1.1862197 -0.87020183 -0.1707992
73000000 0.50322425 -0.43360385 0.011749412 -0.013438025 -0.0001692791 0.00015817433
-11.672024 -1.2343392 -0.29857445 -0.54035205 0.0039266758 0.0032479709
26.144367 4.9262009 -1.5588311 1.1828817 -0.86901164 -0.16663778
74000000 0.50261885 -0.43518451 0.011671702 -0.013361393 -2.7297543e-05 1.7013237e-05
-11.667885 -1.149797 -0.30238441 -0.53473973 0.004325171 0.003040289
26.218084 4.7800417 -1.548946 1.1738034 -0.87009925 -0.16498882
75000000 0.4998188 -0.43712074 0.011677199 -0.01335879 0.00011328705 -3.803592e-05
-11.68809 -1.1297421 -0.30043429 -0.53398907 0.0041250046 0.0033436222
26.151169 4.6887617 -1.5550568 1.1584857 -0.8676281 -0.16712219
76000000 0.49531308 -0.43630552 0.011487719 -0.013175869 2.8459757e-05 6.9087851e-05
-11.709038 -0.96245289 -0.31272969 -0.52684528 0.0043211533 0.0035540226
26.369263 4.1901474 -1.5205079 1.1750133 -0.87221879 -0.1611585
77000000 0.49171868 -0.43787405 0.011465592 -0.013038656 3.4569872e-05 0.00024039585
-11.707941 -0.84621859 -0.31322092 -0.52131033 0.0042053764 0.0030648359
26.224701 4.0659981 -1.5151677 1.1365708 -0.86852467 -0.16795692
78000000 0.48935512 -0.44512641 0.01106438 -0.012957416 -3.9560418e-05 -4.7638612e-05
-11.762994 -0.75283957 -0.32389632 -0.51838374 0.0042419396 0.0032252925
26.799976 3.7760248 -1.5047219 1.1667764 -0.86942255 -0.16381437
79000000 0.48591924 -0.44145134 0.01104993 -0.012597094 -0.00025264331 9.5720345e-05
-11.772472 -0.6635251 -0.32593551 -0.51574719 0.0042452076 0.0034937784
26.719151 3.6904821 -1.5023785 1.1506333 -0.87222898 -0.1622819
80000000 0.48214942 -0.44392353 0.01135562 -0.012722603 0.00024176051 -0.00019258146
-11.835243 -0.53214264 -0.33217785 -0.51489675 0.0045942441 0.0032690603
26.573444 3.3283167 -1.4785194 1.1463552 -0.87238824 -0.1579853
81000000 0.48008901 -0.44403929 0.010610498 -0.012266336 7.4710202e-05 0.00014550064
-11.794574 -0.43385744 -0.33683509 -0.50677162 0.0047052344 0.0039148834
26.795551 3.1451273 -1.4671631 1.1380508 -0.87414539 -0.15871537
82000000 0.4780044 -0.44793683 0.010734456 -0.012310974 3.5060981e-05 -4.9629602e-05
-11.828148 -0.40458393 -0.33660629 -0.50542909 0.0045512808 0.0034287479
26.734272 2.8588963 -1.4581903 1.1308655 -0.87361503 -0.15533742
83000000 0.47412366 -0.45022136 0.010781674 -0.012371378 1.4477158e-05 0.00022521698
-11.83211 -0.24343777 -0.34541234 -0.50098234 0.0043690037 0.0035996051
26.887997 2.7407866 -1.442358 1.1354008 -0.87283844 -0.15011281
84000000 0.47266766 -0.44869077 0.010448545 -0.01189464 -0.00012247849 -0.00026773711
-11.81309 -0.24334073 -0.34290481 -0.49410242 0.0045656255 0.0034431918
26.854023 2.2426963 -1.4336485 1.1191274 -0.87542653 -0.15221056
85000000 0.46777976 -0.45484501 0.010518108 -0.011946096 0.00017637129 0.00010120551
-11.88695 -0.069756269 -0.35189706 -0.49325573 0.0048207641 0.0035841765
27.124075 2.1147547 -1.4300623 1.1230717 -0.87810695 -0.15085655
86000000 0.46774164 -0.45505819 0.010430827 -0.01183184 0.00011277117 -0.00019648588
-11.907116 -0.063273191 -0.35262874 -0.49348056 0.0041779107 0.003478942
26.790581 1.8930845 -1.4190978 1.114659 -0.87349522 -0.14418019
87000000 0.46503189 -0.45722306 0.010397263 -0.011567473 0.00020553895 0.00017181714
-11.919384 0.052395821 -0.35990101 -0.48814869 0.0048368196 0.0038677545
27.000443 1.6832814 -1.40874 1.1129799 -0.87907654 -0.14505455
88000000 0.45960638 -0.46078128 0.010198934 -0.011599613 6.8521826e-05 -8.1453116e-05
-11.887929 0.19855475 -0.36318561 -0.48205543 0.0046402575 0.0033224407
26.899433 1.3335102 -1.3767174 1.0943648 -0.8710773 -0.14204888
89000000 0.45647129 -0.45818391 0.010169365 -0.011138567 -7.57175e-05 0.00026573605
-11.834009 0.30430248 -0.36632693 -0.47605601 0.004601588 0.0036472855
27.382858 1.0457387 -1.3911488 1.1092732 -0.88119125 -0.14694116
90000000 0.45190397 -0.4615626 0.0099877371 -0.011273931 0.00025724314 9.559709e-05
-11.876202 0.36410543 -0.36937222 -0.47711748 0.0048555927 0.0036488846
27.03797 1.0281549 -1.3813747 1.0932137 -0.87259465 -0.14541863
91000000 0.44813177 -0.4649311 0.0098746372 -0.011164476 -2.284622e-05 -0.00017665411
-11.920508 0.46148798 -0.37374875 -0.47325075 0.0050209947 0.0033269615
27.1231 0.80221665 -1.3689312 1.0782987 -0.8730728 -0.14347702
92000000 0.44747064 -0.46623138 0.0097826626 -0.010790369 0.00017391358 0.00025928821
-11.903359 0.51305413 -0.37493268 -0.46937606 0.004842001 0.0036934351
27.11441 0.51969576 -1.3571573 1.074144 -0.87409055 -0.14397395
93000000 0.44631898 -0.46880531 0.009900135 -0.010879382 0.00012267822 0.0001610279
-11.953939 0.59663808 -0.37820646 -0.46852154 0.0048305076 0.0032871608
27.078239 0.21891236 -1.3429801 1.0800134 -0.87639862 -0.13630706
94000000 0.44483456 -0.4715699 0.0098386435 -0.010469915 0.00011942845 0.00036387803
-11.897453 0.69178843 -0.38264281 -0.46331432 0.0049251905 0.0037801752
27.383944 0.082354069 -1.347465 1.0849535 -0.88177955 -0.14115311
95000000 0.4371714 -0.46934831 0.0096023129 -0.010487548 4.9745977e-05 -4.3568267e-05
-11.851057 0.77875781 -0.3838338 -0.45718813 0.004672627 0.003424322
27.177349 -0.28427315 -1.3267753 1.0662593 -0.87782979 -0.13484335
96000000 0.43606949 -0.47538406 0.0097946627 -0.010501191 1.5158198e-05 3.0983298e-05
-11.916214 0.87631226 -0.38788736 -0.4578051 0.004915826 0.0037474099
27.296028 -0.3489666 -1.3305779 1.0670519 -0.88138539 -0.13645121
