<Qucs Dataset 1.0.7>
<indep frequency 200>
  +4.00000000000000000000e+08
  +4.00502512562814056873e+08
  +4.01005025125628113747e+08
  +4.01507537688442230225e+08
  +4.02010050251256287098e+08
  +4.02512562814070343971e+08
  +4.03015075376884400845e+08
  +4.03517587939698517323e+08
  +4.04020100502512574196e+08
  +4.04522613065326631069e+08
  +4.05025125628140687943e+08
  +4.05527638190954744816e+08
  +4.06030150753768861294e+08
  +4.06532663316582918167e+08
  +4.07035175879396975040e+08
  +4.07537688442211031914e+08
  +4.08040201005025148392e+08
  +4.08542713567839205265e+08
  +4.09045226130653262138e+08
  +4.09547738693467319012e+08
  +4.10050251256281435490e+08
  +4.10552763819095492363e+08
  +4.11055276381909549236e+08
  +4.11557788944723606110e+08
  +4.12060301507537662983e+08
  +4.12562814070351779461e+08
  +4.13065326633165836334e+08
  +4.13567839195979893208e+08
  +4.14070351758793950081e+08
  +4.14572864321608066559e+08
  +4.15075376884422123432e+08
  +4.15577889447236180305e+08
  +4.16080402010050237179e+08
  +4.16582914572864294052e+08
  +4.17085427135678410530e+08
  +4.17587939698492467403e+08
  +4.18090452261306524277e+08
  +4.18592964824120581150e+08
  +4.19095477386934697628e+08
  +4.19597989949748754501e+08
  +4.20100502512562811375e+08
  +4.20603015075376868248e+08
  +4.21105527638190984726e+08
  +4.21608040201005041599e+08
  +4.22110552763819098473e+08
  +4.22613065326633155346e+08
  +4.23115577889447212219e+08
  +4.23618090452261328697e+08
  +4.24120603015075385571e+08
  +4.24623115577889442444e+08
  +4.25125628140703499317e+08
  +4.25628140703517615795e+08
  +4.26130653266331672668e+08
  +4.26633165829145729542e+08
  +4.27135678391959786415e+08
  +4.27638190954773843288e+08
  +4.28140703517587959766e+08
  +4.28643216080402016640e+08
  +4.29145728643216073513e+08
  +4.29648241206030130386e+08
  +4.30150753768844246864e+08
  +4.30653266331658303738e+08
  +4.31155778894472360611e+08
  +4.31658291457286417484e+08
  +4.32160804020100474358e+08
  +4.32663316582914590836e+08
  +4.33165829145728647709e+08
  +4.33668341708542704582e+08
  +4.34170854271356761456e+08
  +4.34673366834170877934e+08
  +4.35175879396984934807e+08
  +4.35678391959798991680e+08
  +4.36180904522613048553e+08
  +4.36683417085427165031e+08
  +4.37185929648241221905e+08
  +4.37688442211055278778e+08
  +4.38190954773869335651e+08
  +4.38693467336683392525e+08
  +4.39195979899497509003e+08
  +4.39698492462311565876e+08
  +4.40201005025125622749e+08
  +4.40703517587939679623e+08
  +4.41206030150753796101e+08
  +4.41708542713567852974e+08
  +4.42211055276381909847e+08
  +4.42713567839195966721e+08
  +4.43216080402010023594e+08
  +4.43718592964824140072e+08
  +4.44221105527638196945e+08
  +4.44723618090452253819e+08
  +4.45226130653266310692e+08
  +4.45728643216080427170e+08
  +4.46231155778894484043e+08
  +4.46733668341708540916e+08
  +4.47236180904522597790e+08
  +4.47738693467336714268e+08
  +4.48241206030150771141e+08
  +4.48743718592964828014e+08
  +4.49246231155778884888e+08
  +4.49748743718592941761e+08
  +4.50251256281407058239e+08
  +4.50753768844221115112e+08
  +4.51256281407035171986e+08
  +4.51758793969849228859e+08
  +4.52261306532663345337e+08
  +4.52763819095477402210e+08
  +4.53266331658291459084e+08
  +4.53768844221105515957e+08
  +4.54271356783919572830e+08
  +4.54773869346733689308e+08
  +4.55276381909547746181e+08
  +4.55778894472361803055e+08
  +4.56281407035175859928e+08
  +4.56783919597989976406e+08
  +4.57286432160804033279e+08
  +4.57788944723618090153e+08
  +4.58291457286432147026e+08
  +4.58793969849246263504e+08
  +4.59296482412060320377e+08
  +4.59798994974874377251e+08
  +4.60301507537688434124e+08
  +4.60804020100502490997e+08
  +4.61306532663316607475e+08
  +4.61809045226130664349e+08
  +4.62311557788944721222e+08
  +4.62814070351758778095e+08
  +4.63316582914572894573e+08
  +4.63819095477386951447e+08
  +4.64321608040201008320e+08
  +4.64824120603015065193e+08
  +4.65326633165829122066e+08
  +4.65829145728643238544e+08
  +4.66331658291457295418e+08
  +4.66834170854271352291e+08
  +4.67336683417085409164e+08
  +4.67839195979899525642e+08
  +4.68341708542713582516e+08
  +4.68844221105527639389e+08
  +4.69346733668341696262e+08
  +4.69849246231155753136e+08
  +4.70351758793969869614e+08
  +4.70854271356783926487e+08
  +4.71356783919597983360e+08
  +4.71859296482412040234e+08
  +4.72361809045226156712e+08
  +4.72864321608040213585e+08
  +4.73366834170854270458e+08
  +4.73869346733668327332e+08
  +4.74371859296482443810e+08
  +4.74874371859296500683e+08
  +4.75376884422110557556e+08
  +4.75879396984924614429e+08
  +4.76381909547738671303e+08
  +4.76884422110552787781e+08
  +4.77386934673366844654e+08
  +4.77889447236180901527e+08
  +4.78391959798994958401e+08
  +4.78894472361809074879e+08
  +4.79396984924623131752e+08
  +4.79899497487437188625e+08
  +4.80402010050251245499e+08
  +4.80904522613065302372e+08
  +4.81407035175879418850e+08
  +4.81909547738693475723e+08
  +4.82412060301507532597e+08
  +4.82914572864321589470e+08
  +4.83417085427135705948e+08
  +4.83919597989949762821e+08
  +4.84422110552763819695e+08
  +4.84924623115577876568e+08
  +4.85427135678391993046e+08
  +4.85929648241206049919e+08
  +4.86432160804020106792e+08
  +4.86934673366834163666e+08
  +4.87437185929648220539e+08
  +4.87939698492462337017e+08
  +4.88442211055276393890e+08
  +4.88944723618090450764e+08
  +4.89447236180904507637e+08
  +4.89949748743718624115e+08
  +4.90452261306532680988e+08
  +4.90954773869346737862e+08
  +4.91457286432160794735e+08
  +4.91959798994974851608e+08
  +4.92462311557788968086e+08
  +4.92964824120603024960e+08
  +4.93467336683417081833e+08
  +4.93969849246231138706e+08
  +4.94472361809045255184e+08
  +4.94974874371859312057e+08
  +4.95477386934673368931e+08
  +4.95979899497487425804e+08
  +4.96482412060301542282e+08
  +4.96984924623115599155e+08
  +4.97487437185929656029e+08
  +4.97989949748743712902e+08
  +4.98492462311557769775e+08
  +4.98994974874371886253e+08
  +4.99497487437185943127e+08
  +5.00000000000000000000e+08
</indep>
<dep S[2,2] frequency>
  -8.93121401390935765185e-01-j4.88310195855800946441e-02
  -8.93896898620626267906e-01-j4.91646029636526663009e-02
  -8.94656005090957995307e-01-j4.94955246491722844482e-02
  -8.93800323743153990463e-01-j4.95838854776351131703e-02
  -8.92977534977046794040e-01-j4.96446661173186865046e-02
  -8.93766857160087191403e-01-j4.83547729631755851543e-02
  -8.94574387766749357098e-01-j4.71388827463401494100e-02
  -8.95978944522475839740e-01-j4.83019886747881252442e-02
  -8.97293968767143068632e-01-j4.93442329830249618028e-02
  -8.96470530904717066711e-01-j4.74894854251098827436e-02
  -8.95654272647916194217e-01-j4.57799632664962416473e-02
  -8.94967465783761739750e-01-j4.68236400015429529708e-02
  -8.94312552391476112135e-01-j4.79703494810629418876e-02
  -8.94167528074576778430e-01-j5.07346714222605341127e-02
  -8.93946129235591468998e-01-j5.30892409734896805751e-02
  -8.92710192546939951264e-01-j4.99961416607418718261e-02
  -8.91549665577980099407e-01-j4.71556293489881067638e-02
  -8.91256888382643053248e-01-j4.72192673379856972526e-02
  -8.91072841925997449763e-01-j4.73798006865648949071e-02
  -8.91986642029956922073e-01-j4.85191119973754983463e-02
  -8.92817227957808712269e-01-j4.95248756923734531621e-02
  -8.92898601898739485705e-01-j4.93279597697786412192e-02
  -8.92935240775005745206e-01-j4.91217305874738496829e-02
  -8.92606842275117440266e-01-j4.88363240566825340672e-02
  -8.92298941955712243690e-01-j4.86270647517316259578e-02
  -8.92139189432542334401e-01-j4.89752151623460210694e-02
  -8.92380043139563872145e-01-j4.90945954141663379322e-02
  -8.95300244724734572976e-01-j4.76847282294267371672e-02
  -8.97389956478286787700e-01-j4.66143079476691868379e-02
  -8.94381776728471633575e-01-j4.76290745908965751365e-02
  -8.91661905992515269048e-01-j4.84147575621378320476e-02
  -8.90573204776753835077e-01-j4.79029501241642549636e-02
  -8.90010529911436365502e-01-j4.73867800300414865333e-02
  -8.92209750977557281004e-01-j4.68475684714193194025e-02
  -8.93989958565986619909e-01-j4.64742624965904516099e-02
  -8.93724600779084221713e-01-j4.69119793089464998115e-02
  -8.93011444167007395478e-01-j4.74201491834867899788e-02
  -8.90257724502152680834e-01-j4.82489092349365281120e-02
  -8.88352182566983117340e-01-j4.89996459041834031556e-02
  -8.90063928673469284547e-01-j4.94184475379968388142e-02
  -8.91765101925003134120e-01-j4.92168347332240935232e-02
  -8.93423536882378188650e-01-j4.65335697865261188610e-02
  -8.94340540767624925245e-01-j4.48367209850701678442e-02
  -8.92470169083490638684e-01-j4.68509862004693050652e-02
  -8.91689130656598494262e-01-j4.80133256231945401704e-02
  -8.94769118800594176477e-01-j4.61568054350977516331e-02
  -8.97053860272984171509e-01-j4.53592275160997135397e-02
  -8.96677648403153670920e-01-j4.81062745168050892586e-02
  -8.96186990532438665369e-01-j5.00355338801507787405e-02
  -8.95334616523447812675e-01-j4.93734741069471461117e-02
  -8.94937323009659446704e-01-j4.84693705904412006080e-02
  -8.95906342583588699569e-01-j4.68401632157413941315e-02
  -8.95976900303616319299e-01-j4.54796717786055959554e-02
  -8.93490134969777693996e-01-j4.48826702829080367851e-02
  -8.92411902032466231027e-01-j4.48374611067342138115e-02
  -8.95141322518279047848e-01-j4.62843694617715226136e-02
  -8.96594089123151971599e-01-j4.72630953537899328731e-02
  -8.94763814980546579037e-01-j4.70380323055162030688e-02
  -8.93468021341606855046e-01-j4.75657461924435601142e-02
  -8.93481555866136312183e-01-j4.99369909627505395577e-02
  -8.93629204498409768220e-01-j5.14033101179545703907e-02
  -8.94089543450059975882e-01-j5.07583714795875121095e-02
  -8.94383414459909875660e-01-j4.96836884674083031910e-02
  -8.94306940068980704694e-01-j4.76527060303713126399e-02
  -8.94561081989342588017e-01-j4.64352847095681128819e-02
  -8.95519301687024427139e-01-j4.69462485216168984303e-02
  -8.94776138114695029913e-01-j4.74035883947303976482e-02
  -8.90579371932918806287e-01-j4.77514440341253940114e-02
  -8.88273420697743731900e-01-j4.83585858046857580694e-02
  -8.89636923980052451988e-01-j4.94690765040819296905e-02
  -8.90859389382678390490e-01-j4.97099163444172931214e-02
  -8.91819723959979326899e-01-j4.83358296148193797293e-02
  -8.92471643636030820268e-01-j4.77730204476737099761e-02
  -8.92575693438497186349e-01-j4.86522980933638826695e-02
  -8.92769785208533228626e-01-j4.83293587583265918384e-02
  -8.93117339551966704647e-01-j4.59591613085346822887e-02
  -8.92891917226627307436e-01-j4.46477431805304275647e-02
  -8.91731437897152590111e-01-j4.50642137749608304165e-02
  -8.91534857994408236337e-01-j4.54602014954928260182e-02
  -8.92845456800317127666e-01-j4.58246211388039226264e-02
  -8.92945631445921206293e-01-j4.58851820215633518507e-02
  -8.91229382279469906081e-01-j4.54903299523507498314e-02
  -8.89848167146571222830e-01-j4.51916520312803451920e-02
  -8.88950297810446099511e-01-j4.50300940756498332962e-02
  -8.89147855326279046295e-01-j4.58600187430176844949e-02
  -8.90858321745526038349e-01-j4.80593375858563848224e-02
  -8.92182604235586595998e-01-j4.88902229694938295079e-02
  -8.92994910612903591840e-01-j4.79070362806911648201e-02
  -8.93828517602373473494e-01-j4.59461965803945326936e-02
  -8.94688277638234552569e-01-j4.27411536955146220684e-02
  -8.94914380973616863102e-01-j4.18720684436455770072e-02
  -8.94367003234866064787e-01-j4.38577921874954007597e-02
  -8.93746104072578373412e-01-j4.48835513877582706344e-02
  -8.93039334491802505589e-01-j4.47829707424270972993e-02
  -8.92235946698377135888e-01-j4.47574441533041128549e-02
  -8.91323174802876816436e-01-j4.48163331203626086330e-02
  -8.91319277610206683882e-01-j4.53283805308974732662e-02
  -8.92300540988983592605e-01-j4.63314021022200317468e-02
  -8.93324290501141038412e-01-j4.68021553903046061418e-02
  -8.94392117967862332328e-01-j4.67186393783916645295e-02
  -8.94878440944115949307e-01-j4.72503830092901727644e-02
  -8.94783410868147388584e-01-j4.83974576705572812063e-02
  -8.93467939188374415949e-01-j4.76039399379381000799e-02
  -8.90980615481598237082e-01-j4.49459186788459183481e-02
  -8.90566899191093885868e-01-j4.44090040174667105566e-02
  -8.92066293439332747006e-01-j4.58302273222220279969e-02
  -8.92590478641385298708e-01-j4.58381962037871723559e-02
  -8.92249955316307019615e-01-j4.45929615775383023091e-02
  -8.91968207931668755073e-01-j4.47133681263889234958e-02
  -8.91736583357814804884e-01-j4.59970464305079970724e-02
  -8.92106946750200746621e-01-j4.57248962518061879967e-02
  -8.92969965391850251102e-01-j4.41797870173731357935e-02
  -8.93329509205526894888e-01-j4.34274166277818507442e-02
  -8.93293593910783778611e-01-j4.32982594866545000833e-02
  -8.93972936367986026340e-01-j4.43722593587625030453e-02
  -8.95192058229098419631e-01-j4.63539268706315149560e-02
  -8.95135139643175037349e-01-j4.68986252673322390194e-02
  -8.94154222148911714818e-01-j4.64024292722648307175e-02
  -8.92860120905956344828e-01-j4.56278228068219271485e-02
  -8.91348370731486761009e-01-j4.46599040517543094397e-02
  -8.91264907924503635428e-01-j4.37354285967461384188e-02
  -8.92133832227386625036e-01-j4.28402284977995873039e-02
  -8.91373931101306693492e-01-j4.27063783177046990547e-02
  -8.89572863134080016323e-01-j4.30590270229364163734e-02
  -8.90427342822405654132e-01-j4.32433960623033880610e-02
  -8.92909287489112135638e-01-j4.33244215494751686024e-02
  -8.92905271478005357899e-01-j4.41350222443443254705e-02
  -8.91441003835286571721e-01-j4.53738154395672693697e-02
  -8.90678323819209860623e-01-j4.49484416880748596790e-02
  -8.90310429436479755516e-01-j4.35873208220278474112e-02
  -8.91002780029300112119e-01-j4.42858021067073712174e-02
  -8.92266316347302912426e-01-j4.60930935815116113452e-02
  -8.92023872414659857455e-01-j4.58375459156677017569e-02
  -8.91005498182432353893e-01-j4.45192561470831235648e-02
  -8.91793898903808002210e-01-j4.52849399345336967038e-02
  -8.93472209655615023927e-01-j4.70769158964564407577e-02
  -8.93457263036777193932e-01-j4.61523789847270021758e-02
  -8.92645698280970290028e-01-j4.39496149437769573209e-02
  -8.92008001101740943817e-01-j4.30000739444717297588e-02
  -8.91448500706174540298e-01-j4.26133963467000276282e-02
  -8.91570521745802313518e-01-j4.18387940981929939976e-02
  -8.91984307656099262296e-01-j4.08981078188699539999e-02
  -8.92179111395114854410e-01-j4.12176062612353427683e-02
  -8.92284560962275818952e-01-j4.20517695696495732993e-02
  -8.93227966290060737542e-01-j4.21713926865855057158e-02
  -8.94497117908444994150e-01-j4.20131611248849498597e-02
  -8.93593661984490084116e-01-j4.40592860195404348311e-02
  -8.91886280465701730691e-01-j4.69207988850765672639e-02
  -8.91204186442742907204e-01-j4.67341530225541951227e-02
  -8.90882795058386189879e-01-j4.54769749147040450166e-02
  -8.91249861320674630072e-01-j4.40612721202654350483e-02
  -8.91846856359891582144e-01-j4.25924102122028566675e-02
  -8.90434324221492046192e-01-j4.30230914451965873457e-02
  -8.88387419576606163218e-01-j4.40536605007598447425e-02
  -8.90243700289532480241e-01-j4.43654086330899088964e-02
  -8.93266340581252649145e-01-j4.44627452575199477725e-02
  -8.92934198756937802521e-01-j4.35256228451322349504e-02
  -8.91655824155518139662e-01-j4.22968733387179274263e-02
  -8.91795895837080854207e-01-j4.30335240964867596358e-02
  -8.92312939825513407044e-01-j4.42925640620330240971e-02
  -8.92225434303815734260e-01-j4.44970638389955291947e-02
  -8.91986834008450468758e-01-j4.44378853818558558486e-02
  -8.92353735919010793154e-01-j4.40445941210679189903e-02
  -8.92862759213542744874e-01-j4.35728497859592528441e-02
  -8.93064838733444443797e-01-j4.30733584646127640183e-02
  -8.93199578737262855910e-01-j4.25677629322103803777e-02
  -8.92833228969765468896e-01-j4.43187099775171761129e-02
  -8.92364180410837648516e-01-j4.65318782885409953920e-02
  -8.91566272824055983115e-01-j4.54580340945405433906e-02
  -8.90705717151055953451e-01-j4.37581829128204785606e-02
  -8.90807613056050828781e-01-j4.32386921270636812031e-02
  -8.91079147270885774113e-01-j4.29277735223949769017e-02
  -8.90599843011000813497e-01-j4.22970107286422189463e-02
  -8.89998122469529695522e-01-j4.16139838653635726895e-02
  -8.90538488933442895501e-01-j4.19306174202155601538e-02
  -8.91249706708106770314e-01-j4.23965912569688394007e-02
  -8.92055770351357635306e-01-j4.24061792701653783588e-02
  -8.92875235574788650439e-01-j4.23533338462911898570e-02
  -8.90953656098950386166e-01-j4.21949457938385896760e-02
  -8.88693656748361093811e-01-j4.20236377830284293933e-02
  -8.90997428174133077050e-01-j4.28731717469985132429e-02
  -8.93808162774263781358e-01-j4.38360467014003787889e-02
  -8.92889052504005298339e-01-j4.42454141813065637834e-02
  -8.91601247100942684298e-01-j4.45999457666637136311e-02
  -8.91666548229849920126e-01-j4.31290738747698507161e-02
  -8.91849334788680336850e-01-j4.14993430779283592469e-02
  -8.91798658757139595110e-01-j4.08790679808435225562e-02
  -8.91730408862527301750e-01-j4.03348092484692166693e-02
  -8.91480434280718658790e-01-j4.15665721793239267834e-02
  -8.91218803748159649203e-01-j4.29117557620621731251e-02
  -8.91561674447023500001e-01-j4.11420141390898483347e-02
  -8.91936456669519595053e-01-j3.92087768610473452746e-02
  -8.91240543660022921379e-01-j4.10933920762918819536e-02
  -8.90499678757576185184e-01-j4.31375594666592171444e-02
  -8.91149121339338323722e-01-j4.24247736881237236251e-02
  -8.91841470275156256164e-01-j4.16270913594164321259e-02
  -8.92602001277685630498e-01-j4.29111963238676535903e-02
  -8.93364038165177731798e-01-j4.42377297285966933349e-02
  -8.93181466469447182810e-01-j4.29791150407521221899e-02
  -8.92989565016716668744e-01-j4.16942931139028111209e-02
</dep>
<dep S[2,1] frequency>
  +2.26805926537298008228e+00-j2.38539893688688273699e+01
  +2.19288669537714575597e+00-j2.38152786444891866324e+01
  +2.11839426634320870946e+00-j2.37769912169373789368e+01
  +2.11582867689633369324e+00-j2.37793373794825342316e+01
  +2.11210748487060895329e+00-j2.37807037481457115291e+01
  +2.05043259071751959866e+00-j2.37350422800874838458e+01
  +1.98972268224547876869e+00-j2.36906468725449812496e+01
  +1.96091338249100832769e+00-j2.36860915638553564122e+01
  +1.93031318884648106504e+00-j2.36814948359017307666e+01
  +1.85616835749678799061e+00-j2.36746818145884958540e+01
  +1.78573723802897976753e+00-j2.36674482414856726109e+01
  +1.78540840494144603667e+00-j2.36527074177675018518e+01
  +1.78799326667946267833e+00-j2.36367502731698806429e+01
  +1.83590478354960584539e+00-j2.36003601717104629643e+01
  +1.87476189916406132951e+00-j2.35628047876759083579e+01
  +1.79332998149011491051e+00-j2.35106431557879744787e+01
  +1.71564277147119614852e+00-j2.34590766546550142380e+01
  +1.68108524199388131848e+00-j2.34145315294750275825e+01
  +1.64621161617653921638e+00-j2.33757599152800921161e+01
  +1.60813865531806099440e+00-j2.33948333074739593940e+01
  +1.57246679694391167104e+00-j2.34105504610722050529e+01
  +1.55836986198453208985e+00-j2.33958362855377188794e+01
  +1.54395292134839356990e+00-j2.33794547748942349585e+01
  +1.52682270537260400545e+00-j2.33498142878408430079e+01
  +1.50471002107056950337e+00-j2.33183221490011085564e+01
  +1.44657579021883453407e+00-j2.32733832587321849417e+01
  +1.38713470622724521775e+00-j2.32446737724787659829e+01
  +1.31857922169804631096e+00-j2.33248964861394512127e+01
  +1.26009969489775208729e+00-j2.33750667443603106221e+01
  +1.26366054878606481893e+00-j2.32409688246557877278e+01
  +1.26550933749204119749e+00-j2.31240200646480360547e+01
  +1.25864986843212856016e+00-j2.31037936994309198724e+01
  +1.24508083453440887567e+00-j2.30886419960674942331e+01
  +1.19629692670335163740e+00-j2.30999155683999752853e+01
  +1.15167934508085512135e+00-j2.30979016795685971886e+01
  +1.12732854058815235021e+00-j2.30309796536160114044e+01
  +1.10698167206568109933e+00-j2.29702133904433942746e+01
  +1.10486254475607914571e+00-j2.29374407899925074616e+01
  +1.09744007173938795674e+00-j2.29175602955960577845e+01
