<Qucs Dataset 1.0.7>
<indep frequency 201>
  +4.00000000000000000000e+08
  +4.00500000000000000000e+08
  +4.01000000000000000000e+08
  +4.01500000000000000000e+08
  +4.02000000000000000000e+08
  +4.02500000000000000000e+08
  +4.03000000000000000000e+08
  +4.03500000000000000000e+08
  +4.04000000000000000000e+08
  +4.04500000000000000000e+08
  +4.05000000000000000000e+08
  +4.05500000000000000000e+08
  +4.06000000000000000000e+08
  +4.06500000000000000000e+08
  +4.07000000000000000000e+08
  +4.07500000000000000000e+08
  +4.08000000000000000000e+08
  +4.08500000000000000000e+08
  +4.09000000000000000000e+08
  +4.09500000000000000000e+08
  +4.10000000000000000000e+08
  +4.10500000000000000000e+08
  +4.11000000000000000000e+08
  +4.11500000000000000000e+08
  +4.12000000000000000000e+08
  +4.12500000000000000000e+08
  +4.13000000000000000000e+08
  +4.13500000000000000000e+08
  +4.14000000000000000000e+08
  +4.14500000000000000000e+08
  +4.15000000000000000000e+08
  +4.15500000000000000000e+08
  +4.16000000000000000000e+08
  +4.16500000000000000000e+08
  +4.17000000000000000000e+08
  +4.17500000000000000000e+08
  +4.18000000000000000000e+08
  +4.18500000000000000000e+08
  +4.19000000000000000000e+08
  +4.19500000000000000000e+08
  +4.20000000000000000000e+08
  +4.20500000000000000000e+08
  +4.21000000000000000000e+08
  +4.21500000000000000000e+08
  +4.22000000000000000000e+08
  +4.22500000000000000000e+08
  +4.23000000000000000000e+08
  +4.23500000000000000000e+08
  +4.24000000000000000000e+08
  +4.24500000000000000000e+08
  +4.25000000000000000000e+08
  +4.25500000000000000000e+08
  +4.26000000000000000000e+08
  +4.26500000000000000000e+08
  +4.27000000000000000000e+08
  +4.27500000000000000000e+08
  +4.28000000000000000000e+08
  +4.28500000000000000000e+08
  +4.29000000000000000000e+08
  +4.29500000000000000000e+08
  +4.30000000000000000000e+08
  +4.30500000000000000000e+08
  +4.31000000000000000000e+08
  +4.31500000000000000000e+08
  +4.32000000000000000000e+08
  +4.32500000000000000000e+08
  +4.33000000000000000000e+08
  +4.33500000000000000000e+08
  +4.34000000000000000000e+08
  +4.34500000000000000000e+08
  +4.35000000000000000000e+08
  +4.35500000000000000000e+08
  +4.36000000000000000000e+08
  +4.36500000000000000000e+08
  +4.37000000000000000000e+08
  +4.37500000000000000000e+08
  +4.38000000000000000000e+08
  +4.38500000000000000000e+08
  +4.39000000000000000000e+08
  +4.39500000000000000000e+08
  +4.40000000000000000000e+08
  +4.40500000000000000000e+08
  +4.41000000000000000000e+08
  +4.41500000000000000000e+08
  +4.42000000000000000000e+08
  +4.42500000000000000000e+08
  +4.43000000000000000000e+08
  +4.43500000000000000000e+08
  +4.44000000000000000000e+08
  +4.44500000000000000000e+08
  +4.45000000000000000000e+08
  +4.45500000000000000000e+08
  +4.46000000000000000000e+08
  +4.46500000000000000000e+08
  +4.47000000000000000000e+08
  +4.47500000000000000000e+08
  +4.48000000000000000000e+08
  +4.48500000000000000000e+08
  +4.49000000000000000000e+08
  +4.49500000000000000000e+08
  +4.50000000000000000000e+08
  +4.50500000000000000000e+08
  +4.51000000000000000000e+08
  +4.51500000000000000000e+08
  +4.52000000000000000000e+08
  +4.52500000000000000000e+08
  +4.53000000000000000000e+08
  +4.53500000000000000000e+08
  +4.54000000000000000000e+08
  +4.54500000000000000000e+08
  +4.55000000000000000000e+08
  +4.55500000000000000000e+08
  +4.56000000000000000000e+08
  +4.56500000000000000000e+08
  +4.57000000000000000000e+08
  +4.57500000000000000000e+08
  +4.58000000000000000000e+08
  +4.58500000000000000000e+08
  +4.59000000000000000000e+08
  +4.59500000000000000000e+08
  +4.60000000000000000000e+08
  +4.60500000000000000000e+08
  +4.61000000000000000000e+08
  +4.61500000000000000000e+08
  +4.62000000000000000000e+08
  +4.62500000000000000000e+08
  +4.63000000000000000000e+08
  +4.63500000000000000000e+08
  +4.64000000000000000000e+08
  +4.64500000000000000000e+08
  +4.65000000000000000000e+08
  +4.65500000000000000000e+08
  +4.66000000000000000000e+08
  +4.66500000000000000000e+08
  +4.67000000000000000000e+08
  +4.67500000000000000000e+08
  +4.68000000000000000000e+08
  +4.68500000000000000000e+08
  +4.69000000000000000000e+08
  +4.69500000000000000000e+08
  +4.70000000000000000000e+08
  +4.70500000000000000000e+08
  +4.71000000000000000000e+08
  +4.71500000000000000000e+08
  +4.72000000000000000000e+08
  +4.72500000000000000000e+08
  +4.73000000000000000000e+08
  +4.73500000000000000000e+08
  +4.74000000000000000000e+08
  +4.74500000000000000000e+08
  +4.75000000000000000000e+08
  +4.75500000000000000000e+08
  +4.76000000000000000000e+08
  +4.76500000000000000000e+08
  +4.77000000000000000000e+08
  +4.77500000000000000000e+08
  +4.78000000000000000000e+08
  +4.78500000000000000000e+08
  +4.79000000000000000000e+08
  +4.79500000000000000000e+08
  +4.80000000000000000000e+08
  +4.80500000000000000000e+08
  +4.81000000000000000000e+08
  +4.81500000000000000000e+08
  +4.82000000000000000000e+08
  +4.82500000000000000000e+08
  +4.83000000000000000000e+08
  +4.83500000000000000000e+08
  +4.84000000000000000000e+08
  +4.84500000000000000000e+08
  +4.85000000000000000000e+08
  +4.85500000000000000000e+08
  +4.86000000000000000000e+08
  +4.86500000000000000000e+08
  +4.87000000000000000000e+08
  +4.87500000000000000000e+08
  +4.88000000000000000000e+08
  +4.88500000000000000000e+08
  +4.89000000000000000000e+08
  +4.89500000000000000000e+08
  +4.90000000000000000000e+08
  +4.90500000000000000000e+08
  +4.91000000000000000000e+08
  +4.91500000000000000000e+08
  +4.92000000000000000000e+08
  +4.92500000000000000000e+08
  +4.93000000000000000000e+08
  +4.93500000000000000000e+08
  +4.94000000000000000000e+08
  +4.94500000000000000000e+08
  +4.95000000000000000000e+08
  +4.95500000000000000000e+08
  +4.96000000000000000000e+08
  +4.96500000000000000000e+08
  +4.97000000000000000000e+08
  +4.97500000000000000000e+08
  +4.98000000000000000000e+08
  +4.98500000000000000000e+08
  +4.99000000000000000000e+08
  +4.99500000000000000000e+08
  +5.00000000000000000000e+08
</indep>
<dep S[2,2] frequency>
  -3.23341259098792355164e-01+j3.08435593670916385900e-01
  -3.21162674541420556373e-01+j3.07524925915174829338e-01
  -3.18981393442587357612e-01+j3.06599825814459880924e-01
  -3.16797512496210242894e-01+j3.05660198071552313692e-01
  -3.14611130038248199003e-01+j3.04705947731841342296e-01
  -3.12422346056320410224e-01+j3.03736980207375162344e-01
  -3.10231262199064938834e-01+j3.02753201301302843351e-01
  -3.08037981785195980056e-01+j3.01754517232721231057e-01
  -3.05842609812280952220e-01+j3.00740834661899825164e-01
  -3.03645252965201450923e-01+j2.99712060715919881293e-01
  -3.01446019624301064788e-01+j2.98668103014692598585e-01
  -2.99245019873206730132e-01+j2.97608869697373212837e-01
  -2.97042365506307581846e-01+j2.96534269449169107791e-01
  -2.94838170035886193432e-01+j2.95444211528533506872e-01
  -2.92632548698888272920e-01+j2.94338605794746022148e-01
  -2.90425618463317880558e-01+j2.93217362735881337255e-01
  -2.88217498034251784489e-01+j2.92080393497156309834e-01
  -2.86008307859449306676e-01+j2.90927609909659989906e-01
  -2.83798170134566041245e-01+j2.89758924519457339297e-01
  -2.81587208807938693678e-01+j2.88574250617066874192e-01
  -2.79375549584939986136e-01+j2.87373502267311398128e-01
  -2.77163319931896023895e-01+j2.86156594339528724813e-01
  -2.74950649079537035036e-01+j2.84923442538145388347e-01
  -2.72737668025991586429e-01+j2.83673963433611953100e-01
  -2.70524509539291968530e-01+j2.82408074493682159645e-01
  -2.68311308159393302475e-01+j2.81125694115043178734e-01
  -2.66098200199684831180e-01+j2.79826741655288202537e-01
  -2.63885323747983790987e-01+j2.78511137465219105191e-01
  -2.61672818667003648230e-01+j2.77178802921482503319e-01
  -2.59460826594277993440e-01+j2.75829660459525505267e-01
  -2.57249490941529102006e-01+j2.74463633606867485337e-01
  -2.55038956893476664867e-01+j2.73080647016676614225e-01
  -2.52829371406058156513e-01+j2.71680626501651312221e-01
  -2.50620883204064559546e-01+j2.70263499068191026531e-01
  -2.48413642778175292047e-01+j2.68829192950848283594e-01
  -2.46207802381370355338e-01+j2.67377637647058019610e-01
  -2.44003516024716982091e-01+j2.65908763952131699249e-01
  -2.41800939472522125051e-01+j2.64422503994506563618e-01
  -2.39600230236823252827e-01+j2.62918791271237073381e-01
  -2.37401547571221671618e-01+j2.61397560683728769071e-01
  -2.35205052464038888438e-01+j2.59858748573688402850e-01
  -2.33010907630784080968e-01+j2.58302292759289453539e-01
  -2.30819277505919795423e-01+j2.56728132571543143925e-01
  -2.28630328233922208714e-01+j2.55136208890848814601e-01
  -2.26444227659613805947e-01+j2.53526464183731092827e-01
  -2.24261145317765031582e-01+j2.51898842539732270573e-01
  -2.22081252421946873099e-01+j2.50253289708459281115e-01
  -2.19904721852637818902e-01+j2.48589753136765428954e-01
  -2.17731728144549163684e-01+j2.46908182006051912794e-01
  -2.15562447473185647695e-01+j2.45208527269684173344e-01
  -2.13397057640614506990e-01+j2.43490741690488898819e-01
  -2.11235738060438438257e-01+j2.41754779878337544563e-01
  -2.09078669741955602834e-01+j2.40000598327786918151e-01
  -2.06926035273511277346e-01+j2.38228155455762286019e-01
  -2.04778018805020056714e-01+j2.36437411639272732078e-01
  -2.02634806029649172654e-01+j2.34628329253133566246e-01
  -2.00496584164668534278e-01+j2.32800872707681238971e-01
  -1.98363541931434461674e-01+j2.30955008486465995787e-01
  -1.96235869534528428737e-01+j2.29090705183900594788e-01
  -1.94113758640020117596e-01+j2.27207933542843298902e-01
  -1.91997402352856172403e-01+j2.25306666492103124799e-01
  -1.89886995193366991952e-01+j2.23386879183841480234e-01
  -1.87782733072895946513e-01+j2.21448549030854674458e-01
  -1.85684813268517268092e-01+j2.19491655743714153548e-01
  -1.83593434396867261071e-01+j2.17516181367742728048e-01
  -1.81508796387072013356e-01+j2.15522110319810722423e-01
  -1.79431100452754344055e-01+j2.13509429424925262220e-01
  -1.77360549063140915393e-01+j2.11478127952589245453e-01
  -1.75297345913239643878e-01+j2.09428197652922531979e-01
  -1.73241695893111891102e-01+j2.07359632792500137022e-01
  -1.71193805056207626336e-01+j2.05272430189899102171e-01
  -1.69153880586784988171e-01+j2.03166589250934670474e-01
  -1.67122130766400034396e-01+j2.01042112003548378851e-01
  -1.65098764939470732394e-01+j1.98899003132332219401e-01
  -1.63083993477912581049e-01+j1.96737270012671855435e-01
  -1.61078027744848528702e-01+j1.94556922744468174802e-01
  -1.59081080057390245042e-01+j1.92357974185427271774e-01
  -1.57093363648497130747e-01+j1.90140439983888048792e-01
  -1.55115092627915007739e-01+j1.87904338611159071881e-01
  -1.53146481942187384639e-01+j1.85649691393354715485e-01
  -1.51187747333759281432e-01+j1.83376522542678582761e-01
  -1.49239105299165286667e-01+j1.81084859188158531218e-01
  -1.47300773046311728187e-01+j1.78774731405785924920e-01
  -1.45372968450857342759e-01+j1.76446172248045818343e-01
  -1.43455910011694554029e-01+j1.74099217772804459869e-01
  -1.41549816805556338828e-01+j1.71733907071532215793e-01
  -1.39654908440727365537e-01+j1.69350282296839210749e-01
  -1.37771405009897041083e-01+j1.66948388689286603137e-01
  -1.35899527042138479338e-01+j1.64528274603462976167e-01
  -1.34039495454047585810e-01+j1.62089991533284794034e-01
  -1.32191531500034487046e-01+j1.59633594136507517280e-01
  -1.30355856721784291175e-01+j1.57159140258411211821e-01
  -1.28532692896913491865e-01+j1.54666690954642416234e-01
  -1.26722261986801920663e-01+j1.52156310513182846389e-01
  -1.24924786083659533631e-01+j1.49628066475421206416e-01
  -1.23140487356799610552e-01+j1.47082029656298379772e-01
  -1.21369587998167438592e-01+j1.44518274163507542962e-01
  -1.19612310167118707227e-01+j1.41936877415718976092e-01
  -1.17868875934473482658e-01+j1.39337920159807143738e-01
  -1.16139507225873073182e-01+j1.36721486487052595882e-01
  -1.14424425764438786324e-01+j1.34087663848300786551e-01
  -1.12723853012769215098e-01+j1.31436543068045641469e-01
  -1.11038010114285490282e-01+j1.28768218357417696396e-01
  -1.09367117833964244689e-01+j1.26082787326059375665e-01
  -1.07711396498450406867e-01+j1.23380350992853021763e-01
  -1.06071065935600006291e-01+j1.20661013795490920653e-01
  -1.04446345413468089092e-01+j1.17924883598854585154e-01
  -1.02837453578758064587e-01+j1.15172071702190625953e-01
  -1.01244608394774893156e-01+j1.12402692845061366600e-01
  -9.96680270788879996147e-02+j1.09616865212036160293e-01
  -9.81079260395465446720e-02+j1.06814710436130999582e-01
  -9.65645208128760312860e-02+j1.03996353600944696494e-01
  -9.50380259988612419164e-02+j1.01161923241498794002e-01
  -9.35286551971834523300e-02+j9.83115513437523985685e-02
  -9.20366209427029291490e-02+j9.54453733427682998736e-02
  -9.05621346406422222941e-02+j9.25635281195344994387e-02
  -8.91054065014922347387e-02+j8.96661579963953375705e-02
  -8.76666454756792612457e-02+j8.67534087311096907547e-02
  -8.62460591880086502314e-02+j8.38254295094928020271e-02
  -8.48438538719475943140e-02+j8.08823729366498628268e-02
  -8.34602343037493810129e-02+j7.79243950267771573470e-02
  -8.20954037364767241769e-02+j7.49516551915205553325e-02
  -8.07495638339442711739e-02+j7.19643162268874120313e-02
  -7.94229146046309120166e-02+j6.89625442986869091611e-02
  -7.81156543355779886539e-02+j6.59465089265090370629e-02
  -7.68279795263254738913e-02+j6.29163829662204437954e-02
  -7.55600848229275312562e-02+j5.98723425909708228954e-02
  -7.43121629520498983013e-02+j5.68145672707145998892e-02
  -7.30844046552447945686e-02+j5.37432397502273229151e-02
  -7.18769986233920299412e-02+j5.06585460256275543767e-02
  -7.06901314313516104804e-02+j4.75606753193882070274e-02
  -6.95239874728990070452e-02+j4.44498200538481491595e-02
  -6.83787488959504141661e-02+j4.13261758232110754108e-02
  -6.72545955381143034657e-02+j3.81899413640431339978e-02
  -6.61517048626460990590e-02+j3.50413185242614971804e-02
  -6.50702518947955388384e-02+j3.18805122306211052852e-02
  -6.40104091586306545025e-02+j2.87077304547086742392e-02
  -6.29723466143428112218e-02+j2.55231841774329060168e-02
  -6.19562315961039722367e-02+j2.23270873520353685393e-02
  -6.09622287504888449305e-02+j1.91196568656181176138e-02
  -5.99904999755179746401e-02+j1.59011124991991076305e-02
  -5.90412043603603109432e-02+j1.26716768863086581831e-02
  -5.81144981257266657337e-02+j9.43157547012908603623e-03
  -5.72105345650026908544e-02+j6.18103645920302369188e-03
  -5.63294639861567913997e-02+j2.92029078170608080711e-03
  -5.54714336544545050245e-02-j3.50427961680568889058e-04
  -5.46365877360414087249e-02-j3.63088354630360099495e-03
  -5.38250672424017695405e-02-j6.92083717344191273746e-03
  -5.30370099757559998466e-02-j1.02200475215767222492e-02
  -5.22725504754235625882e-02-j1.35282707990021927591e-02
  -5.15318199651921826643e-02-j1.68452607977505330883e-02
  -5.08149463017260050179e-02-j2.01707689488297564617e-02
  -5.01220539240535556402e-02-j2.35045443787280511350e-02
  -4.94532638041764727177e-02-j2.68463339671701078926e-02
  -4.88086933988138849116e-02-j3.01958824061093478175e-02
  -4.81884566023484950392e-02-j3.35529322599135149119e-02
  -4.75926637009757014241e-02-j3.69172240267302276262e-02
  -4.70214213281118231791e-02-j4.02884962009958658147e-02
  -4.64748324210962904246e-02-j4.36664853370600791749e-02
  -4.59529961791851349062e-02-j4.70509261139034212773e-02
  -4.54560080229208240965e-02-j5.04415514008968585147e-02
  -4.49839595548517934276e-02-j5.38380923246001702465e-02
  -4.45369385216874968947e-02-j5.72402783365337508581e-02
  -4.41150287778662164584e-02-j6.06478372819132388605e-02
  -4.37183102505905862856e-02-j6.40604954693049233327e-02
  -4.33468589063583653598e-02-j6.74779777411589898328e-02
  -4.30007467190063330520e-02-j7.09000075451932110226e-02
  -4.26800416392834058854e-02-j7.43263070065806885633e-02
  -4.23848075659984946384e-02-j7.77565970009152784836e-02
  -4.21151043187457663208e-02-j8.11905972278973708800e-02
  -4.18709876122362878448e-02-j8.46280262857166121204e-02
  -4.16525090322522606456e-02-j8.80686017460839964954e-02
  -4.14597160132544884092e-02-j9.15120402298693347287e-02
  -4.12926518176355283885e-02-j9.49580574833094465115e-02
  -4.11513555166690414566e-02-j9.84063684547307887529e-02
  -4.10358619731358009730e-02-j1.01856687371769810690e-01
  -4.09462018256639970204e-02-j1.05308727819008657312e-01
  -4.08824014747934949554e-02-j1.08762202816020642215e-01
  -4.08444830707527239966e-02-j1.12216824895759043068e-01
  -4.08324645030014865554e-02-j1.15672306183244449906e-01
  -4.08463593914933920104e-02-j1.19128358474522938470e-01
  -4.08861770797194212790e-02-j1.22584693315824444504e-01
  -4.09519226295000926541e-02-j1.26041022082896414513e-01
  -4.10435968175436594052e-02-j1.29497056060459220239e-01
  -4.11611961337765563940e-02-j1.32952506521736180112e-01
  -4.13047127814497594400e-02-j1.36407084808013195909e-01
  -4.14741346790051812476e-02-j1.39860502408183651202e-01
  -4.16694454637251965323e-02-j1.43312471038232830400e-01
  -4.18906244971447572212e-02-j1.46762702720609039542e-01
  -4.21376468722191033223e-02-j1.50210909863454089574e-01
  -4.24104834222744919714e-02-j1.53656805339612984040e-01
  -4.27091007316874327060e-02-j1.57100102565420507439e-01
  -4.30334611483247364561e-02-j1.60540515579183584727e-01
  -4.33835227977155124535e-02-j1.63977759119333876825e-01
  -4.37592395989508942122e-02-j1.67411548702199680649e-01
  -4.41605612822918436322e-02-j1.70841600699351225945e-01
  -4.45874334084900292297e-02-j1.74267632414481760117e-01
  -4.50397973897843639790e-02-j1.77689362159770797289e-01
  -4.55175905125793089923e-02-j1.81106509331698639631e-01
  -4.60207459617669734087e-02-j1.84518794486257881049e-01
  -4.65491928466965632083e-02-j1.87925939413532361311e-01
</dep>
<dep S[2,1] frequency>
  +7.70817769023231735837e-01-j4.54046122854633749100e-01
  +7.70406971211706981251e-01-j4.56898298454559814719e-01
  +7.69981000253417868784e-01-j4.59757193197359359527e-01
  +7.69539725387127448997e-01-j4.62622730139988891374e-01
  +7.69083015742274000992e-01-j4.65494830443546003806e-01
  +7.68610740362506650314e-01-j4.68373413355807122205e-01
  +7.68122768229728469791e-01-j4.71258396193941109242e-01
  +7.67618968288665937116e-01-j4.74149694327429871432e-01
  +7.67099209471932996784e-01-j4.77047221161188528260e-01
  +7.66563360725638021087e-01-j4.79950888118910179436e-01
  +7.66011291035493813162e-01-j4.82860604626642209158e-01
  +7.65442869453458074602e-01-j4.85776278096607339041e-01
  +7.64857965124898453446e-01-j4.88697813911279199672e-01
  +7.64256447316282616633e-01-j4.91625115407732904416e-01
  +7.63638185443391237506e-01-j4.94558083862272512832e-01
  +7.63003049100065666721e-01-j4.97496618475358753919e-01
  +7.62350908087479628428e-01-j5.00440616356842338242e-01
  +7.61681632443943490429e-01-j5.03389972511527061805e-01
  +7.60995092475230117124e-01-j5.06344579825058982436e-01
  +7.60291158785437293233e-01-j5.09304329050175086380e-01
  +7.59569702308377836530e-01-j5.12269108793312777372e-01
  +7.58830594339488850864e-01-j5.15238805501594732128e-01
  +7.58073706568276883822e-01-j5.18213303450217765977e-01
  +7.57298911111283001851e-01-j5.21192484730233163148e-01
  +7.56506080545571335527e-01-j5.24176229236765434116e-01
  +7.55695087942735321818e-01-j5.27164414657658619845e-01
  +7.54865806903429636954e-01-j5.30156916462576455196e-01
  +7.54018111592408390997e-01-j5.33153607892575487348e-01
  +7.53151876774081685539e-01-j5.36154359950153147629e-01
  +7.52266977848575990606e-01-j5.39159041389798532329e-01
  +7.51363290888304669046e-01-j5.42167518709058215975e-01
  +7.50440692675026443936e-01-j5.45179656140127977260e-01
  +7.49499060737412903244e-01-j5.48195315641991642863e-01
  +7.48538273389098396393e-01-j5.51214356893123258452e-01
  +7.47558209767209325136e-01-j5.54236637284759137145e-01
  +7.46558749871379156993e-01-j5.57262011914769983534e-01
  +7.45539774603231952810e-01-j5.60290333582141419910e-01
  +7.44501165806325748697e-01-j5.63321452782070686283e-01
