<Qucs Dataset 1.0.7>
<indep frequency 201>
  +4.00000000000000000000e+08
  +4.00500000000000000000e+08
  +4.01000000000000000000e+08
  +4.01500000000000000000e+08
  +4.02000000000000000000e+08
  +4.02500000000000000000e+08
  +4.03000000000000000000e+08
  +4.03500000000000000000e+08
  +4.04000000000000000000e+08
  +4.04500000000000000000e+08
  +4.05000000000000000000e+08
  +4.05500000000000000000e+08
  +4.06000000000000000000e+08
  +4.06500000000000000000e+08
  +4.07000000000000000000e+08
  +4.07500000000000000000e+08
  +4.08000000000000000000e+08
  +4.08500000000000000000e+08
  +4.09000000000000000000e+08
  +4.09500000000000000000e+08
  +4.10000000000000000000e+08
  +4.10500000000000000000e+08
  +4.11000000000000000000e+08
  +4.11500000000000000000e+08
  +4.12000000000000000000e+08
  +4.12500000000000000000e+08
  +4.13000000000000000000e+08
  +4.13500000000000000000e+08
  +4.14000000000000000000e+08
  +4.14500000000000000000e+08
  +4.15000000000000000000e+08
  +4.15500000000000000000e+08
  +4.16000000000000000000e+08
  +4.16500000000000000000e+08
  +4.17000000000000000000e+08
  +4.17500000000000000000e+08
  +4.18000000000000000000e+08
  +4.18500000000000000000e+08
  +4.19000000000000000000e+08
  +4.19500000000000000000e+08
  +4.20000000000000000000e+08
  +4.20500000000000000000e+08
  +4.21000000000000000000e+08
  +4.21500000000000000000e+08
  +4.22000000000000000000e+08
  +4.22500000000000000000e+08
  +4.23000000000000000000e+08
  +4.23500000000000000000e+08
  +4.24000000000000000000e+08
  +4.24500000000000000000e+08
  +4.25000000000000000000e+08
  +4.25500000000000000000e+08
  +4.26000000000000000000e+08
  +4.26500000000000000000e+08
  +4.27000000000000000000e+08
  +4.27500000000000000000e+08
  +4.28000000000000000000e+08
  +4.28500000000000000000e+08
  +4.29000000000000000000e+08
  +4.29500000000000000000e+08
  +4.30000000000000000000e+08
  +4.30500000000000000000e+08
  +4.31000000000000000000e+08
  +4.31500000000000000000e+08
  +4.32000000000000000000e+08
  +4.32500000000000000000e+08
  +4.33000000000000000000e+08
  +4.33500000000000000000e+08
  +4.34000000000000000000e+08
  +4.34500000000000000000e+08
  +4.35000000000000000000e+08
  +4.35500000000000000000e+08
  +4.36000000000000000000e+08
  +4.36500000000000000000e+08
  +4.37000000000000000000e+08
  +4.37500000000000000000e+08
  +4.38000000000000000000e+08
  +4.38500000000000000000e+08
  +4.39000000000000000000e+08
  +4.39500000000000000000e+08
  +4.40000000000000000000e+08
  +4.40500000000000000000e+08
  +4.41000000000000000000e+08
  +4.41500000000000000000e+08
  +4.42000000000000000000e+08
  +4.42500000000000000000e+08
  +4.43000000000000000000e+08
  +4.43500000000000000000e+08
  +4.44000000000000000000e+08
  +4.44500000000000000000e+08
  +4.45000000000000000000e+08
  +4.45500000000000000000e+08
  +4.46000000000000000000e+08
  +4.46500000000000000000e+08
  +4.47000000000000000000e+08
  +4.47500000000000000000e+08
  +4.48000000000000000000e+08
  +4.48500000000000000000e+08
  +4.49000000000000000000e+08
  +4.49500000000000000000e+08
  +4.50000000000000000000e+08
  +4.50500000000000000000e+08
  +4.51000000000000000000e+08
  +4.51500000000000000000e+08
  +4.52000000000000000000e+08
  +4.52500000000000000000e+08
  +4.53000000000000000000e+08
  +4.53500000000000000000e+08
  +4.54000000000000000000e+08
  +4.54500000000000000000e+08
  +4.55000000000000000000e+08
  +4.55500000000000000000e+08
  +4.56000000000000000000e+08
  +4.56500000000000000000e+08
  +4.57000000000000000000e+08
  +4.57500000000000000000e+08
  +4.58000000000000000000e+08
  +4.58500000000000000000e+08
  +4.59000000000000000000e+08
  +4.59500000000000000000e+08
  +4.60000000000000000000e+08
  +4.60500000000000000000e+08
  +4.61000000000000000000e+08
  +4.61500000000000000000e+08
  +4.62000000000000000000e+08
  +4.62500000000000000000e+08
  +4.63000000000000000000e+08
  +4.63500000000000000000e+08
  +4.64000000000000000000e+08
  +4.64500000000000000000e+08
  +4.65000000000000000000e+08
  +4.65500000000000000000e+08
  +4.66000000000000000000e+08
  +4.66500000000000000000e+08
  +4.67000000000000000000e+08
  +4.67500000000000000000e+08
  +4.68000000000000000000e+08
  +4.68500000000000000000e+08
  +4.69000000000000000000e+08
  +4.69500000000000000000e+08
  +4.70000000000000000000e+08
  +4.70500000000000000000e+08
  +4.71000000000000000000e+08
  +4.71500000000000000000e+08
  +4.72000000000000000000e+08
  +4.72500000000000000000e+08
  +4.73000000000000000000e+08
  +4.73500000000000000000e+08
  +4.74000000000000000000e+08
  +4.74500000000000000000e+08
  +4.75000000000000000000e+08
  +4.75500000000000000000e+08
  +4.76000000000000000000e+08
  +4.76500000000000000000e+08
  +4.77000000000000000000e+08
  +4.77500000000000000000e+08
  +4.78000000000000000000e+08
  +4.78500000000000000000e+08
  +4.79000000000000000000e+08
  +4.79500000000000000000e+08
  +4.80000000000000000000e+08
  +4.80500000000000000000e+08
  +4.81000000000000000000e+08
  +4.81500000000000000000e+08
  +4.82000000000000000000e+08
  +4.82500000000000000000e+08
  +4.83000000000000000000e+08
  +4.83500000000000000000e+08
  +4.84000000000000000000e+08
  +4.84500000000000000000e+08
  +4.85000000000000000000e+08
  +4.85500000000000000000e+08
  +4.86000000000000000000e+08
  +4.86500000000000000000e+08
  +4.87000000000000000000e+08
  +4.87500000000000000000e+08
  +4.88000000000000000000e+08
  +4.88500000000000000000e+08
  +4.89000000000000000000e+08
  +4.89500000000000000000e+08
  +4.90000000000000000000e+08
  +4.90500000000000000000e+08
  +4.91000000000000000000e+08
  +4.91500000000000000000e+08
  +4.92000000000000000000e+08
  +4.92500000000000000000e+08
  +4.93000000000000000000e+08
  +4.93500000000000000000e+08
  +4.94000000000000000000e+08
  +4.94500000000000000000e+08
  +4.95000000000000000000e+08
  +4.95500000000000000000e+08
  +4.96000000000000000000e+08
  +4.96500000000000000000e+08
  +4.97000000000000000000e+08
  +4.97500000000000000000e+08
  +4.98000000000000000000e+08
  +4.98500000000000000000e+08
  +4.99000000000000000000e+08
  +4.99500000000000000000e+08
  +5.00000000000000000000e+08
</indep>
<dep S[2,2] frequency>
  -1.91431479138826521336e-01+j3.64726463773795361867e-01
  -1.88374204923608512541e-01+j3.63161463943231344054e-01
  -1.85315639840558987750e-01+j3.61570533500197410781e-01
  -1.82256027390354791162e-01+j3.59953512484410875771e-01
  -1.79195614988381657362e-01+j3.58310242884192553525e-01
  -1.76134653969901244785e-01+j3.56640568718463446540e-01
  -1.73073399593685450792e-01+j3.54944336119758452330e-01
  -1.70012111044037739216e-01+j3.53221393418257145758e-01
  -1.66951051431200980790e-01+j3.51471591226771351568e-01
  -1.63890487790069094842e-01+j3.49694782526708602965e-01
  -1.60830691077184229076e-01+j3.47890822754949480267e-01
  -1.57771936165963910792e-01+j3.46059569891624674298e-01
  -1.54714501840119034171e-01+j3.44200884548768681892e-01
  -1.51658670785215776711e-01+j3.42314630059804447804e-01
  -1.48604729578342587004e-01+j3.40400672569833584458e-01
  -1.45552968675833338530e-01+j3.38458881126701138786e-01
  -1.42503682399014230953e-01+j3.36489127772789831106e-01
  -1.39457168917912599504e-01+j3.34491287637511236497e-01
  -1.36413730232912588924e-01+j3.32465239030454107194e-01
  -1.33373672154293965164e-01+j3.30410863535146037684e-01
  -1.30337304279619869973e-01+j3.28328046103390502886e-01
  -1.27304939968943098272e-01+j3.26216675150125035021e-01
  -1.24276896317771279321e-01+j3.24076642648761681365e-01
  -1.21253494127776306755e-01+j3.21907844226966000090e-01
  -1.18235057875185844978e-01+j3.19710179262806148959e-01
  -1.15221915676841701881e-01+j3.17483550981238482613e-01
  -1.12214399253871222051e-01+j3.15227866550872592999e-01
  -1.09212843892945499213e-01+j3.12943037180950456300e-01
  -1.06217588405094098825e-01+j3.10628978218492723951e-01
  -1.03228975082030771659e-01+j3.08285609245552039148e-01
  -1.00247349649968953145e-01+j3.05912854176509263482e-01
  -9.72730612208978495659e-02+j3.03510641355346610926e-01
  -9.43064622412760344972e-02+j3.01078903652850449202e-01
  -9.13479084381306760676e-02+j2.98617578563658336854e-01
  -8.83977587625360827772e-02+j2.96126608303092009322e-01
  -8.54563753304318218795e-02+j2.93605939903710755345e-01
  -8.25241233607684199214e-02+j2.91055525311507967690e-01
  -7.96013711109675448085e-02+j2.88475321481685087477e-01
  -7.66884898096602540818e-02+j2.85865290473916067171e-01
  -7.37858535866939835302e-02+j2.83225399547055112226e-01
  -7.08938394004037242269e-02+j2.80555621253173237406e-01
  -6.80128269621133041412e-02+j2.77855933530880006010e-01
  -6.51431986578706601065e-02+j2.75126319797832030734e-01
  -6.22853394674066640491e-02+j2.72366769042349132768e-01
  -5.94396368803050689777e-02+j2.69577275914067437945e-01
  -5.66064808093877935846e-02+j2.66757840813530822111e-01
  -5.37862635012985590421e-02+j2.63908469980649318387e-01
  -5.09793794443160752650e-02+j2.61029175581935057870e-01
  -4.81862252733565865626e-02+j2.58119975796419154346e-01
  -4.54071996722112958267e-02+j2.55180894900192911656e-01
  -4.26427032730091193358e-02+j2.52211963349439849402e-01
  -3.98931385529190940531e-02+j2.49213217861913971518e-01
  -3.71589097280965452441e-02+j2.46184701496746372040e-01
  -3.44404226449165351553e-02+j2.43126463732502268167e-01
  -3.17380846684878203945e-02+j2.40038560543397394564e-01
  -2.90523045684804026578e-02+j2.36921054473577891164e-01
  -2.63834924023046424324e-02+j2.33774014709377975230e-01
  -2.37320593956427128290e-02+j2.30597517149461472830e-01
  -2.10984178203987848832e-02+j2.27391644472761195184e-01
  -1.84829808700818221112e-02+j2.24156486204110161342e-01
  -1.58861625326587319051e-02+j2.20892138777495250501e-01
  -1.33083774609323857163e-02+j2.17598705596821984098e-01
  -1.07500408404904712611e-02+j2.14276297094115969477e-01
  -8.21156825525326539150e-03+j2.10925030785059419713e-01
  -5.69337555069204803715e-03+j2.07545031321777789790e-01
  -3.19587869478266117795e-03+j2.04136430542793068099e-01
  -7.19493636708645745159e-04+j2.00699367520046495494e-01
  +1.73536383656502923856e-03+j1.97233988602903698162e-01
  +4.16827824583332340325e-03+j1.93740447459077813619e-01
  +6.57883456719932091517e-03+j1.90218905112353342535e-01
  +8.96661838158796520304e-03+j1.86669529977047443658e-01
  +1.13312160261290761909e-02+j1.83092497889132677091e-01
  +1.36722147473441468790e-02+j1.79487992133923968119e-01
  +1.59892028560413290705e-02+j1.75856203470262151267e-01
  +1.82817698838488862378e-02+j1.72197330151122846020e-01
  +2.05495067412857501665e-02+j1.68511577940561152467e-01
  +2.27920058772852485163e-02+j1.64799160126937072057e-01
  +2.50088614400735265164e-02+j1.61060297532342938664e-01
  +2.71996694393008553448e-02+j1.57295218518164192645e-01
  +2.93640279093404510391e-02+j1.53504158986724398295e-01
  +3.15015370736305699850e-02+j1.49687362378925159501e-01
  +3.36117995099660671343e-02+j1.45845079667854121697e-01
  +3.56944203166263962501e-02+j1.41977569348282206541e-01
  +3.77490072792296960102e-02+j1.38085097422010194546e-01
  +3.97751710382010514877e-02+j1.34167937379007840004e-01
  +4.17725252567191507325e-02+j1.30226370174304301175e-01
  +4.37406867890526296350e-02+j1.26260684200590472814e-01
  +4.56792758491331163384e-02+j1.22271175256483427551e-01
  +4.75879161792728266889e-02+j1.18258146510434189458e-01
  +4.94662352188639520278e-02+j1.14221908460231821869e-01
  +5.13138642729634719686e-02+j1.10162778888091048013e-01
  +5.31304386806241701890e-02+j1.06081082811289778567e-01
  +5.49155979828154228173e-02+j1.01977152428344902679e-01
  +5.66689860898588193550e-02+j9.78513270607062474182e-02
  +5.83902514481734469243e-02+j9.37039530899684142140e-02
  +6.00790472062548985832e-02+j8.95353838905784960023e-02
  +6.17350313797101479807e-02+j8.53459797580580353804e-02
  +6.33578670152420420081e-02+j8.11361078327265811128e-02
  +6.49472223534254267108e-02+j7.69061420189458555541e-02
  +6.65027709901354624478e-02+j7.26564628998893347056e-02
  +6.80241920365095564804e-02+j6.83874576478653434242e-02
  +6.95111702772801542949e-02+j6.40995199302032553357e-02
  +7.09633963273593737497e-02+j5.97930498107338698199e-02
  +7.23805667865087265511e-02+j5.54684536469117056567e-02
  +7.37623843919978927630e-02+j5.11261439825888008848e-02
  +7.51085581690745796024e-02+j4.67665394365061465320e-02
  +7.64188035791270037222e-02+j4.23900645865332437179e-02
  +7.76928426654069914647e-02+j3.79971498497162496477e-02
  +7.89304041961602642630e-02+j3.35882313581973429573e-02
  +8.01312238050527758659e-02+j2.91637508310381848853e-02
  +8.12950441287532132861e-02+j2.47241554420580822438e-02
  +8.24216149415174514914e-02+j2.02698976837164257514e-02
  +8.35106932867000217868e-02+j1.58014352271389491023e-02
  +8.45620436050010804152e-02+j1.13192307783675227828e-02
  +8.55754378593808207043e-02+j6.82375193089804210622e-03
  +8.65506556564895612738e-02+j2.31547101463384918940e-03
  +8.74874843645001565307e-02-j2.20513505870080506188e-03
  +8.83857192272254899024e-02-j6.73758495353384001536e-03
  +8.92451634744242383590e-02-j1.12813930717542976190e-02
  +9.00656284281583507934e-02-j1.58360697172071351879e-02
  +9.08469336051165310408e-02-j2.04011212632923821797e-02
  +9.15889068147925922148e-02-j2.49760503235369746289e-02
  +9.22913842534287542918e-02-j2.95603559250256914259e-02
  +9.29542105936033147273e-02-j3.41535336845737169664e-02
  +9.35772390694128430866e-02-j3.87550759875022604595e-02
  +9.41603315571261090255e-02-j4.33644721689001449993e-02
  +9.47033586512311398309e-02-j4.79812086972289386644e-02
  +9.52061997358419898063e-02-j5.26047693601455965129e-02
  +9.56687430513089021034e-02-j5.72346354523936354242e-02
  +9.60908857560376361562e-02-j6.18702859656202544536e-02
  +9.64725339834354711499e-02-j6.65111977799995313099e-02
  +9.68136028938938464350e-02-j7.11568458574723672339e-02
  +9.71140167217799943344e-02-j7.58067034364958147741e-02
  +9.73737088174094767012e-02-j8.04602422281255752479e-02
  +9.75926216838913784812e-02-j8.51169326132900777582e-02
  +9.77707070088842389310e-02-j8.97762438410993485194e-02
  +9.79079256911684625564e-02-j9.44376442280257522022e-02
  +9.80042478620491985808e-02-j9.91006013578216160553e-02
  +9.80596529015360651726e-02-j1.03764582281987038925e-01
  +9.80741294493088222595e-02-j1.08429053720653117976e-01
  +9.80476754104450121119e-02-j1.13093482263709618763e-01
  +9.79802979558970221774e-02-j1.17757334572017216545e-01
  +9.78720135177353345313e-02-j1.22420077578557065512e-01
  +9.77228477791559635435e-02-j1.27081178689339713284e-01
  +9.75328356592511935830e-02-j1.31740105983936262035e-01
  +9.73020212925855831898e-02-j1.36396328415447659621e-01
  +9.70304580035707964214e-02-j1.41049316009781794401e-01
  +9.67182082756895544762e-02-j1.45698540064058357224e-01
  +9.63653437155888026311e-02-j1.50343473344004774361e-01
  +9.59719450120818384775e-02-j1.54983590280173777476e-01
  +9.55381018901054757109e-02-j1.59618367162832425210e-01
  +9.50639130596843129339e-02-j1.64247282335393013364e-01
  +9.45494861599432967481e-02-j1.68869816386206794689e-01
  +9.39949376982375239820e-02-j1.73485452338582674114e-01
  +9.34003929844685609751e-02-j1.78093675838907838926e-01
  +9.27659860606336872380e-02-j1.82693975342697045861e-01
  +9.20918596257106480962e-02-j1.87285842298457461119e-01
  +9.13781649559300968022e-02-j1.91868771329215148658e-01
  +9.06250618205215463519e-02-j1.96442260411578861756e-01
  +8.98327183930526240729e-02-j2.01005811052218680279e-01
  +8.90013111583917160274e-02-j2.05558928461608114713e-01
  +8.81310248154568709467e-02-j2.10101121724947770275e-01
  +8.72220521757802735863e-02-j2.14631903970099735535e-01
  +8.62745940580533776654e-02-j2.19150792532464083751e-01
  +8.52888591787248628862e-02-j2.23657309116666924709e-01
  +8.42650640387612170912e-02-j2.28150979954945376527e-01
  +8.32034328066837414184e-02-j2.32631335962138030560e-01
  +8.21041971980249751795e-02-j2.37097912887180128916e-01
  +8.09675963512732632665e-02-j2.41550251461010945242e-01
  +7.97938767004677806938e-02-j2.45987897540790007023e-01
  +7.85832918445557027098e-02-j2.50410402250357988496e-01
  +7.73361024136276498098e-02-j2.54817322116847044811e-01
  +7.60525759321657446321e-02-j2.59208219203365897165e-01
  +7.47329866794499420024e-02-j2.63582661237701632029e-01
  +7.33776155472188884588e-02-j2.67940221736940209496e-01
  +7.19867498947577288959e-02-j2.72280480127995549999e-01
  +7.05606834015222172951e-02-j2.76603021863931597402e-01
  +6.90997159174334685261e-02-j2.80907438536066811352e-01
  +6.76041533110104397863e-02-j2.85193327981807520644e-01
  +6.60743073154268500957e-02-j2.89460294388144134814e-01
  +6.45104953726907126565e-02-j2.93707948390812711992e-01
  +6.29130404760258610253e-02-j2.97935907169048885823e-01
  +6.12822710106377677164e-02-j3.02143794535929766099e-01
  +5.96185205929850026152e-02-j3.06331241024287881380e-01
  +5.79221279086947760106e-02-j3.10497883968151922041e-01
  +5.61934365492553489219e-02-j3.14643367579727661898e-01
  +5.44327948476462930572e-02-j3.18767343021894966615e-01
  +5.26405557130070755889e-02-j3.22869468476225884856e-01
  +5.08170764645158312689e-02-j3.26949409206513441628e-01
  +4.89627186645975598367e-02-j3.31006837617845328658e-01
  +4.70778479515799874733e-02-j3.35041433311172309750e-01
  +4.51628338719656241551e-02-j3.39052883133462379384e-01
  +4.32180497124200480030e-02-j3.43040881223398819166e-01
  +4.12438723316178590395e-02-j3.47005129052670779899e-01
  +3.92406819920715355110e-02-j3.50945335462879315358e-01
  +3.72088621920848572344e-02-j3.54861216698089676491e-01
  +3.51487994979158280273e-02-j3.58752496433058620795e-01
  +3.30608833763179621457e-02-j3.62618905797182256023e-01
  +3.09455060275447557672e-02-j3.66460183394201943763e-01
  +2.88030622189501261943e-02-j3.70276075317714725710e-01
  +2.66339491192939537001e-02-j3.74066335162538732284e-01
</dep>
<dep S[2,1] frequency>
  +7.33435173467642975709e-01-j5.40703178633359038407e-01
  +7.32496979146618931722e-01-j5.44091404272344814075e-01
  +7.31534365453639590093e-01-j5.47485699301149320029e-01
  +7.30547132712396685150e-01-j5.50885866126719858649e-01
  +7.29535082300795556520e-01-j5.54291703049177963969e-01
  +7.28498016727690989036e-01-j5.57703004240456157170e-01
  +7.27435739710898254806e-01-j5.61119559724182148663e-01
  +7.26348056256489793547e-01-j5.64541155356886426020e-01
  +7.25234772739324906610e-01-j5.67967572810551879492e-01
  +7.24095696984843661959e-01-j5.71398589556569080905e-01
  +7.22930638352071941455e-01-j5.74833978851137294974e-01
  +7.21739407817834632830e-01-j5.78273509722160516944e-01
  +7.20521818062163865726e-01-j5.81716946957682723429e-01
  +7.19277683554867985904e-01-j5.85164051095917847611e-01
  +7.18006820643241616686e-01-j5.88614578416909006719e-01
  +7.16709047640905039245e-01-j5.92068280935879154292e-01
  +7.15384184917729148978e-01-j5.95524906398308462308e-01
  +7.14032054990832554253e-01-j5.98984198276800827720e-01
  +7.12652482616608518029e-01-j6.02445895769764816485e-01
  +7.11245294883767087413e-01-j6.05909733801983207968e-01
  +7.09810321307347669162e-01-j6.09375443027098007143e-01
  +7.08347393923666968085e-01-j6.12842749832064326299e-01
  +7.06856347386174421743e-01-j6.16311376343631867059e-01
  +7.05337019062174164219e-01-j6.19781040436871211163e-01
  +7.03789249130367222662e-01-j6.23251455745830296173e-01
  +7.02212880679176199017e-01-j6.26722331676329291739e-01
  +7.00607759805821461718e-01-j6.30193373420965263776e-01
  +6.98973735716077237967e-01-j6.33664281976359711201e-01
  +6.97310660824683070658e-01-j6.37134754162690608581e-01
  +6.95618390856353574492e-01-j6.40604482645559136778e-01
  +6.93896784947334421823e-01-j6.44073155960231957806e-01
  +6.92145705747445383338e-01-j6.47540458538292118540e-01
  +6.90365019522578116096e-01-j6.51006070736752207040e-01
  +6.88554596257564544004e-01-j6.54469668869660292643e-01
  +6.86714309759369978536e-01-j6.57930925242231290362e-01
  +6.84844037760556134664e-01-j6.61389508187558039509e-01
  +6.82943662022942432621e-01-j6.64845082105925966331e-01
  +6.81013068441406188569e-01-j6.68297307506758864193e-01
