<Qucs Dataset 1.0.7>
<indep frequency 201>
  +4.00000000000000000000e+08
  +4.00500000000000000000e+08
  +4.01000000000000000000e+08
  +4.01500000000000000000e+08
  +4.02000000000000000000e+08
  +4.02500000000000000000e+08
  +4.03000000000000000000e+08
  +4.03500000000000000000e+08
  +4.04000000000000000000e+08
  +4.04500000000000000000e+08
  +4.05000000000000000000e+08
  +4.05500000000000000000e+08
  +4.06000000000000000000e+08
  +4.06500000000000000000e+08
  +4.07000000000000000000e+08
  +4.07500000000000000000e+08
  +4.08000000000000000000e+08
  +4.08500000000000000000e+08
  +4.09000000000000000000e+08
  +4.09500000000000000000e+08
  +4.10000000000000000000e+08
  +4.10500000000000000000e+08
  +4.11000000000000000000e+08
  +4.11500000000000000000e+08
  +4.12000000000000000000e+08
  +4.12500000000000000000e+08
  +4.13000000000000000000e+08
  +4.13500000000000000000e+08
  +4.14000000000000000000e+08
  +4.14500000000000000000e+08
  +4.15000000000000000000e+08
  +4.15500000000000000000e+08
  +4.16000000000000000000e+08
  +4.16500000000000000000e+08
  +4.17000000000000000000e+08
  +4.17500000000000000000e+08
  +4.18000000000000000000e+08
  +4.18500000000000000000e+08
  +4.19000000000000000000e+08
  +4.19500000000000000000e+08
  +4.20000000000000000000e+08
  +4.20500000000000000000e+08
  +4.21000000000000000000e+08
  +4.21500000000000000000e+08
  +4.22000000000000000000e+08
  +4.22500000000000000000e+08
  +4.23000000000000000000e+08
  +4.23500000000000000000e+08
  +4.24000000000000000000e+08
  +4.24500000000000000000e+08
  +4.25000000000000000000e+08
  +4.25500000000000000000e+08
  +4.26000000000000000000e+08
  +4.26500000000000000000e+08
  +4.27000000000000000000e+08
  +4.27500000000000000000e+08
  +4.28000000000000000000e+08
  +4.28500000000000000000e+08
  +4.29000000000000000000e+08
  +4.29500000000000000000e+08
  +4.30000000000000000000e+08
  +4.30500000000000000000e+08
  +4.31000000000000000000e+08
  +4.31500000000000000000e+08
  +4.32000000000000000000e+08
  +4.32500000000000000000e+08
  +4.33000000000000000000e+08
  +4.33500000000000000000e+08
  +4.34000000000000000000e+08
  +4.34500000000000000000e+08
  +4.35000000000000000000e+08
  +4.35500000000000000000e+08
  +4.36000000000000000000e+08
  +4.36500000000000000000e+08
  +4.37000000000000000000e+08
  +4.37500000000000000000e+08
  +4.38000000000000000000e+08
  +4.38500000000000000000e+08
  +4.39000000000000000000e+08
  +4.39500000000000000000e+08
  +4.40000000000000000000e+08
  +4.40500000000000000000e+08
  +4.41000000000000000000e+08
  +4.41500000000000000000e+08
  +4.42000000000000000000e+08
  +4.42500000000000000000e+08
  +4.43000000000000000000e+08
  +4.43500000000000000000e+08
  +4.44000000000000000000e+08
  +4.44500000000000000000e+08
  +4.45000000000000000000e+08
  +4.45500000000000000000e+08
  +4.46000000000000000000e+08
  +4.46500000000000000000e+08
  +4.47000000000000000000e+08
  +4.47500000000000000000e+08
  +4.48000000000000000000e+08
  +4.48500000000000000000e+08
  +4.49000000000000000000e+08
  +4.49500000000000000000e+08
  +4.50000000000000000000e+08
  +4.50500000000000000000e+08
  +4.51000000000000000000e+08
  +4.51500000000000000000e+08
  +4.52000000000000000000e+08
  +4.52500000000000000000e+08
  +4.53000000000000000000e+08
  +4.53500000000000000000e+08
  +4.54000000000000000000e+08
  +4.54500000000000000000e+08
  +4.55000000000000000000e+08
  +4.55500000000000000000e+08
  +4.56000000000000000000e+08
  +4.56500000000000000000e+08
  +4.57000000000000000000e+08
  +4.57500000000000000000e+08
  +4.58000000000000000000e+08
  +4.58500000000000000000e+08
  +4.59000000000000000000e+08
  +4.59500000000000000000e+08
  +4.60000000000000000000e+08
  +4.60500000000000000000e+08
  +4.61000000000000000000e+08
  +4.61500000000000000000e+08
  +4.62000000000000000000e+08
  +4.62500000000000000000e+08
  +4.63000000000000000000e+08
  +4.63500000000000000000e+08
  +4.64000000000000000000e+08
  +4.64500000000000000000e+08
  +4.65000000000000000000e+08
  +4.65500000000000000000e+08
  +4.66000000000000000000e+08
  +4.66500000000000000000e+08
  +4.67000000000000000000e+08
  +4.67500000000000000000e+08
  +4.68000000000000000000e+08
  +4.68500000000000000000e+08
  +4.69000000000000000000e+08
  +4.69500000000000000000e+08
  +4.70000000000000000000e+08
  +4.70500000000000000000e+08
  +4.71000000000000000000e+08
  +4.71500000000000000000e+08
  +4.72000000000000000000e+08
  +4.72500000000000000000e+08
  +4.73000000000000000000e+08
  +4.73500000000000000000e+08
  +4.74000000000000000000e+08
  +4.74500000000000000000e+08
  +4.75000000000000000000e+08
  +4.75500000000000000000e+08
  +4.76000000000000000000e+08
  +4.76500000000000000000e+08
  +4.77000000000000000000e+08
  +4.77500000000000000000e+08
  +4.78000000000000000000e+08
  +4.78500000000000000000e+08
  +4.79000000000000000000e+08
  +4.79500000000000000000e+08
  +4.80000000000000000000e+08
  +4.80500000000000000000e+08
  +4.81000000000000000000e+08
  +4.81500000000000000000e+08
  +4.82000000000000000000e+08
  +4.82500000000000000000e+08
  +4.83000000000000000000e+08
  +4.83500000000000000000e+08
  +4.84000000000000000000e+08
  +4.84500000000000000000e+08
  +4.85000000000000000000e+08
  +4.85500000000000000000e+08
  +4.86000000000000000000e+08
  +4.86500000000000000000e+08
  +4.87000000000000000000e+08
  +4.87500000000000000000e+08
  +4.88000000000000000000e+08
  +4.88500000000000000000e+08
  +4.89000000000000000000e+08
  +4.89500000000000000000e+08
  +4.90000000000000000000e+08
  +4.90500000000000000000e+08
  +4.91000000000000000000e+08
  +4.91500000000000000000e+08
  +4.92000000000000000000e+08
  +4.92500000000000000000e+08
  +4.93000000000000000000e+08
  +4.93500000000000000000e+08
  +4.94000000000000000000e+08
  +4.94500000000000000000e+08
  +4.95000000000000000000e+08
  +4.95500000000000000000e+08
  +4.96000000000000000000e+08
  +4.96500000000000000000e+08
  +4.97000000000000000000e+08
  +4.97500000000000000000e+08
  +4.98000000000000000000e+08
  +4.98500000000000000000e+08
  +4.99000000000000000000e+08
  +4.99500000000000000000e+08
  +5.00000000000000000000e+08
</indep>
<dep S[2,2] frequency>
  -1.13453212182186957691e-01+j3.37957895934177354746e-01
  -1.10269443385209608977e-01+j3.35757076820159205965e-01
  -1.07090267251330972798e-01+j3.33525459849409511293e-01
  -1.03916037090182933333e-01+j3.31262930181830506093e-01
  -1.00747110350959623304e-01+j3.28969377219655467748e-01
  -9.75838485826926449462e-02+j3.26644694718958794599e-01
  -9.44266173916954443257e-02+j3.24288780901490214514e-01
  -9.12757863961499715799e-02+j3.21901538566743028458e-01
  -8.81317291777719002965e-02+j3.19482875204199323615e-01
  -8.49948232305451911728e-02+j3.17032703105676327837e-01
  -8.18654499064499496797e-02+j3.14550939477702962144e-01
  -7.87439943581830226194e-02+j3.12037506553842880486e-01
  -7.56308454788228168297e-02+j3.09492331706894441279e-01
  -7.25263958383915996464e-02+j3.06915347560885343192e-01
  -6.94310416173146149887e-02+j3.04306492102771164454e-01
  -6.63451825367212810747e-02+j3.01665708793764142381e-01
  -6.32692217855711502850e-02+j2.98992946680201321374e-01
  -6.02035659445894211217e-02+j2.96288160503865471984e-01
  -5.71486249069679264068e-02+j2.93551310811660026712e-01
  -5.41048117958448093745e-02+j2.90782364064562370842e-01
  -5.10725428785084867300e-02+j2.87981292745747130546e-01
  -4.80522374773458826880e-02+j2.85148075467789086090e-01
  -4.50443178774894148475e-02+j2.82282697078850119965e-01
  -4.20492092312003684640e-02+j2.79385148767754998289e-01
  -3.90673394589178268888e-02+j2.76455428167838190845e-01
  -3.60991391470479872083e-02+j2.73493539459489065635e-01
  -3.31450414424182548956e-02+j2.70499493471265117783e-01
  -3.02054819434568466718e-02+j2.67473307779485858227e-01
  -2.72808985880717003170e-02+j2.64415006806196672962e-01
  -2.43717315382581123373e-02+j2.61324621915395460814e-01
  -2.14784230614277760196e-02+j2.58202191507414802185e-01
  -1.86014174085037398143e-02+j2.55047761111356241504e-01
  -1.57411606887711830183e-02+j2.51861383475463607162e-01
  -1.28981007415339687938e-02+j2.48643118655321987420e-01
  -1.00726870045940719578e-02+j2.45393034099783663438e-01
  -7.26537037957986076009e-03+j2.42111204734503038249e-01
  -4.47660309416275659089e-03+j2.38797713042969483865e-01
  -1.70683856122089139262e-03+j2.35452649144930414860e-01
  +1.04346876504468610847e-03+j2.32076110872092122861e-01
  +3.77386353596298462776e-03+j2.28668203840992900755e-01
  +6.48388965817014994997e-03+j2.25229041522932382779e-01
  +9.17309044626835046188e-03+j2.21758745310848687238e-01
  +1.18410087782928608036e-02+j2.18257444583040027819e-01
  +1.44871872539295010185e-02+j2.14725276763612332731e-01
  +1.71111683554014959441e-02+j2.11162387379561028444e-01
  +1.97124946109955567763e-02+j2.07568930114363170425e-01
  +2.22907087610777487896e-02+j2.03945066857989576459e-01
  +2.48453539266078049508e-02+j2.00290967753227300285e-01
  +2.73759737799794677926e-02+j1.96606811238209167048e-01
  +2.98821127181754242486e-02+j1.92892784085060275956e-01
  +3.23633160380846218729e-02+j1.89149081434547283731e-01
  +3.48191301139152420419e-02+j1.85375906826651559722e-01
  +3.72491025766080730008e-02+j1.81573472226961629694e-01
  +3.96527824951160567934e-02+j1.77741998048797256171e-01
  +4.20297205594720724164e-02+j1.73881713170982388217e-01
  +4.43794692655069544784e-02+j1.69992854951169225508e-01
  +4.67015831011315940557e-02+j1.66075669234640121985e-01
  +4.89956187340190307822e-02+j1.62130410358515719693e-01
  +5.12611352006099307843e-02+j1.58157341151268338031e-01
  +5.34976940962762492759e-02+j1.54156732927492490237e-01
  +5.57048597665359412900e-02+j1.50128865477856754396e-01
  +5.78821994991709498635e-02+j1.46074027054165861417e-01
  +6.00292837171181314915e-02+j1.41992514349479292957e-01
  +6.21456861719860143012e-02+j1.37884632473226853566e-01
  +6.42309841380606094674e-02+j1.33750694921269341897e-01
  +6.62847586066399596660e-02+j1.29591023540856498109e-01
  +6.83065944805761882108e-02+j1.25405948490439400622e-01
  +7.02960807688329802900e-02+j1.21195808194297593996e-01
  +7.22528107809434771980e-02+j1.16960949291949820039e-01
  +7.41763823211797346246e-02+j1.12701726582319916581e-01
  +7.60663978823038489097e-02+j1.08418502962624785368e-01
  +7.79224648387110141456e-02+j1.04111649361987274043e-01
  +7.97441956388236228292e-02+j9.97815446697427471667e-02
  +8.15312079965735403420e-02+j9.54285756584327821139e-02
  +8.32831250817867019265e-02+j9.10531369014982022714e-02
  +8.49995757093224835188e-02+j8.66556306856657576621e-02
  +8.66801945268013129819e-02+j8.22364669180357527045e-02
  +8.83246222007424419687e-02+j7.77960630278960452166e-02
  +8.99325056009456780259e-02+j7.33348438632729082709e-02
  +9.15034979829557615361e-02+j6.88532415822572796404e-02
  +9.30372591684451855087e-02+j6.43516955391299078082e-02
  +9.45334557233217243066e-02+j5.98306521653333978072e-02
  +9.59917611334334397455e-02+j5.52905648453288905975e-02
  +9.74118559776644410420e-02+j5.07318937874007280797e-02
  +9.87934280982855073105e-02+j4.61551058894493215767e-02
  +1.00136172768384268394e-01+j4.15606745998512300266e-02
  +1.01439792856203303550e-01+j3.69490797734593479085e-02
  +1.02703998986235500723e-01+j3.23208075227897073667e-02
  +1.03928509696936788309e-01+j2.76763500645222371155e-02
  +1.05113051594840078984e-01+j2.30162055613622185124e-02
  +1.06257359504986825804e-01+j1.83408779593790399742e-02
  +1.07361176617482456663e-01+j1.36508768209148700912e-02
  +1.08424254630025806989e-01+j8.94671715317027493874e-03
  +1.09446353886295977276e-01+j4.22891923256982216195e-03
  +1.10427243510021422246e-01-j5.01991574955631958410e-04
  +1.11366701534613810054e-01-j5.24548499768506815144e-03
  +1.12264515028228539784e-01-j1.00010260456485089442e-02
  +1.13120480214110696870e-01-j1.47680752019021949151e-02
  +1.13934402586114646994e-01-j1.95460886173731973603e-02
  +1.14706097019272923454e-01-j2.43345183091521893859e-02
  +1.15435387875276518344e-01-j2.91328123620690909723e-02
  +1.16122109102797077540e-01-j3.39404151334119497108e-02
  +1.16766104332498454887e-01-j3.87567674606402595705e-02
  +1.17367226966669013777e-01-j4.35813068719114043992e-02
  +1.17925340263354772041e-01-j4.84134677992784021039e-02
  +1.18440317414925555539e-01-j5.32526817943831387581e-02
  +1.18912041620974351375e-01-j5.80983777464777056965e-02
  +1.19340406155474254568e-01-j6.29499821025923111950e-02
  +1.19725314428117290966e-01-j6.78069190896848084105e-02
  +1.20066680039780715461e-01-j7.26686109385893952428e-02
  +1.20364426832054061123e-01-j7.75344781095743812438e-02
  +1.20618488930753220423e-01-j8.24039395193362222969e-02
  +1.20828810783418449937e-01-j8.72764127692340352382e-02
  +1.20995347190718915975e-01-j9.21513143745887053360e-02
  +1.21118063331730252408e-01-j9.70280599948440680702e-02
  +1.21196934783088350329e-01-j1.01906064664403703257e-01
  +1.21231947531975081667e-01-j1.06784743023971839815e-01
  +1.21223097982909755466e-01-j1.11663509552162310001e-01
  +1.21170392958384054438e-01-j1.16541778797227546516e-01
  +1.21073849693292934226e-01-j1.21418965608697110303e-01
  +1.20933495823200121144e-01-j1.26294485368723702345e-01
  +1.20749369366434433637e-01-j1.31167754222960425414e-01
  +1.20521518700046459394e-01-j1.36038189310769885854e-01
  +1.20250002529656896400e-01-j1.40905208994584169035e-01
  +1.19934889853210879807e-01-j1.45768233088204746117e-01
  +1.19576259918703242668e-01-j1.50626683083883050607e-01
  +1.19174202175913124258e-01-j1.55479982377975362029e-01
  +1.18728816222193223062e-01-j1.60327556494997580661e-01
  +1.18240211742385081806e-01-j1.65168833309895457528e-01
  +1.17708508442913917236e-01-j1.70003243268348647188e-01
  +1.17133835980171574498e-01-j1.74830219604944686607e-01
  +1.16516333883199374455e-01-j1.79649198559028000499e-01
  +1.15856151470837609452e-01-j1.84459619588081602526e-01
  +1.15153447763353122824e-01-j1.89260925578443428563e-01
  +1.14408391388708285952e-01-j1.94052563053227211665e-01
  +1.13621160483528882423e-01-j1.98833982377267209918e-01
  +1.12791942588891247468e-01-j2.03604637958931494746e-01
  +1.11920934541048677779e-01-j2.08363988448673320697e-01
  +1.11008342357200584516e-01-j2.13111496934151545268e-01
  +1.10054381116436061916e-01-j2.17846631131792811686e-01
  +1.09059274835970443362e-01-j2.22568863574654773885e-01
  +1.08023256342815621167e-01-j2.27277671796456692821e-01
  +1.06946567141000925538e-01-j2.31972538511658082916e-01
  +1.05829457274501104180e-01-j2.36652951791455429253e-01
  +1.04672185186005073376e-01-j2.41318405235591976199e-01
  +1.03475017571669658523e-01-j2.45968398139852273410e-01
  +1.02238229232010424674e-01-j2.50602435659165734272e-01
  +1.00962102919071705642e-01-j2.55220028966187395536e-01
  +9.96469291800455847508e-02-j2.59820695405284518564e-01
  +9.82930061974809365921e-02-j2.64403958641842240507e-01
  +9.69006396262571678690e-02-j2.68969348806789132489e-01
  +9.54701424274583265728e-02-j2.73516402636289124306e-01
  +9.40018346993386488819e-02-j2.78044663606514086407e-01
  +9.24960435055228735735e-02-j2.82553682063437117122e-01
  +9.09531027006187375861e-02-j2.87043015347602903375e-01
  +8.93733527533903115980e-02-j2.91512227913797439260e-01
  +8.77571405676859095379e-02-j2.95960891445597784610e-01
  +8.61048193012641238653e-02-j3.00388584964749960626e-01
  +8.44167481826874066542e-02-j3.04794894935340565656e-01
  +8.26932923264634966998e-02-j3.09179415362730747319e-01
  +8.09348225466040016585e-02-j3.13541747887265520589e-01
  +7.91417151687343611854e-02-j3.17881501872675553688e-01
  +7.73143518409602492625e-02-j3.22198294489235981253e-01
  +7.54531193436498437421e-02-j3.26491750791623736028e-01
  +7.35584093982541986634e-02-j3.30761503791499988925e-01
  +7.16306184753972008394e-02-j3.35007194524828966209e-01
  +6.96701476023310339869e-02-j3.39228472113922874254e-01
  +6.76774021699624306336e-02-j3.43424993824249735752e-01
  +6.56527917395831606129e-02-j3.47596425116031615410e-01
  +6.35967298494707344858e-02-j3.51742439690638342142e-01
  +6.15096338215057603094e-02-j3.55862719531828020081e-01
  +5.93919245679720431141e-02-j3.59956954941879181398e-01
  +5.72440263986581099331e-02-j3.64024844572634009854e-01
  +5.50663668284486762516e-02-j3.68066095451522468096e-01
  +5.28593763854996456786e-02-j3.72080423002593696502e-01
  +5.06234884201880452892e-02-j3.76067551062660210270e-01
  +4.83591389149266026592e-02-j3.80027211892539407145e-01
  +4.60667662950103862229e-02-j3.83959146183535937613e-01
  +4.37468112406124154390e-02-j3.87863103059178759846e-01
  +4.13997165000491440523e-02-j3.91738840072305583018e-01
  +3.90259267044487101472e-02-j3.95586123197570138643e-01
  +3.66258881839497396626e-02-j3.99404726819448108177e-01
  +3.42000487855101953372e-02-j4.03194433715816202835e-01
  +3.17488576924951360070e-02-j4.06955035037208756599e-01
  +2.92727652460942344703e-02-j4.10686330281816280863e-01
  +2.67722227687097191762e-02-j4.14388127266331007803e-01
  +2.42476823894074433596e-02-j4.18060242092730849350e-01
  +2.16995968715167908414e-02-j4.21702499111090811645e-01
  +1.91284194424812259427e-02-j4.25314730878517788248e-01
  +1.65346036260491935366e-02-j4.28896778114321031161e-01
  +1.39186030768791990653e-02-j4.32448489651502565589e-01
  +1.12808714176502178361e-02-j4.35969722384681013239e-01
  +8.62186207874249266325e-03-j4.39460341214543026567e-01
  +5.94202814057642747514e-03-j4.42920218988942515637e-01
  +3.24182217864876776048e-03-j4.46349236440736762965e-01
  +5.21696111364433612323e-04-j4.49747282122473390764e-01
  -2.21789894930346509483e-03-j4.53114252338041423318e-01
  -4.97651284425715267901e-03-j4.56450051071391471602e-01
  -7.75369651078472443828e-03-j4.59754589912417632735e-01
  -1.05490021230550956588e-02-j4.63027787980150151714e-01
  -1.33619832296079099621e-02-j4.66269571843320906890e-01
</dep>
<dep S[2,1] frequency>
  +7.03663997285064679588e-01-j6.14594309025721430295e-01
  +7.02132750729288157565e-01-j6.18121090377866000409e-01
  +7.00572043639032915330e-01-j6.21648929488916257569e-01
  +6.98981705220943272394e-01-j6.25177521166093153049e-01
  +6.97361567845095287055e-01-j6.28706555593153026962e-01
  +6.95711467155720963973e-01-j6.32235718346668584822e-01
  +6.94031242182751473280e-01-j6.35764690414872934987e-01
  +6.92320735454108771023e-01-j6.39293148219112428166e-01
  +6.90579793108696105008e-01-j6.42820763637971359650e-01
  +6.88808265010022013897e-01-j6.46347204034096844971e-01
  +6.87006004860408747703e-01-j6.49872132283803360941e-01
  +6.85172870315703508304e-01-j6.53395206809474160536e-01
  +6.83308723100437553910e-01-j6.56916081614820734913e-01
  +6.81413429123370772977e-01-j6.60434406323050393617e-01
  +6.79486858593329356992e-01-j6.63949826217970939801e-01
  +6.77528886135283281433e-01-j6.67461982288084842985e-01
  +6.75539390906587433605e-01-j6.70970511273716541112e-01
  +6.73518256713291685323e-01-j6.74475045717192078776e-01
  +6.71465372126462400892e-01-j6.77975214016140026452e-01
  +6.69380630598418679966e-01-j6.81470640479911349274e-01
  +6.67263930578805175564e-01-j6.84960945389186171006e-01
  +6.65115175630414667829e-01-j6.88445745058767433200e-01
  +6.62934274544674240204e-01-j6.91924651903625620442e-01
  +6.60721141456704019745e-01-j6.95397274508169127571e-01
  +6.58475695959852114214e-01-j6.98863217698832639435e-01
  +6.56197863219620258768e-01-j7.02322082619930010416e-01
  +6.53887574086882916724e-01-j7.05773466812858130126e-01
  +6.51544765210295584446e-01-j7.09216964298618357532e-01
  +6.49169379147804481711e-01-j7.12652165663697378939e-01
  +6.46761364477145161977e-01-j7.16078658149299052127e-01
  +6.44320675905241779802e-01-j7.19496025743958877996e-01
  +6.41847274376388221562e-01-j7.22903849279510013481e-01
  +6.39341127179125168212e-01-j7.26301706530439905585e-01
  +6.36802208051685858514e-01-j7.29689172316608236635e-01
  +6.34230497285920069572e-01-j7.33065818609326846911e-01
  +6.31625981829584848271e-01-j7.36431214640801634630e-01
  +6.28988655386890305188e-01-j7.39784927016922777554e-01
  +6.26318518517185673922e-01-j7.43126519833360865697e-01
