<Qucs Dataset 1.0.7>
<indep frequency 201>
  +4.00000000000000000000e+08
  +4.00500000000000000000e+08
  +4.01000000000000000000e+08
  +4.01500000000000000000e+08
  +4.02000000000000000000e+08
  +4.02500000000000000000e+08
  +4.03000000000000000000e+08
  +4.03500000000000000000e+08
  +4.04000000000000000000e+08
  +4.04500000000000000000e+08
  +4.05000000000000000000e+08
  +4.05500000000000000000e+08
  +4.06000000000000000000e+08
  +4.06500000000000000000e+08
  +4.07000000000000000000e+08
  +4.07500000000000000000e+08
  +4.08000000000000000000e+08
  +4.08500000000000000000e+08
  +4.09000000000000000000e+08
  +4.09500000000000000000e+08
  +4.10000000000000000000e+08
  +4.10500000000000000000e+08
  +4.11000000000000000000e+08
  +4.11500000000000000000e+08
  +4.12000000000000000000e+08
  +4.12500000000000000000e+08
  +4.13000000000000000000e+08
  +4.13500000000000000000e+08
  +4.14000000000000000000e+08
  +4.14500000000000000000e+08
  +4.15000000000000000000e+08
  +4.15500000000000000000e+08
  +4.16000000000000000000e+08
  +4.16500000000000000000e+08
  +4.17000000000000000000e+08
  +4.17500000000000000000e+08
  +4.18000000000000000000e+08
  +4.18500000000000000000e+08
  +4.19000000000000000000e+08
  +4.19500000000000000000e+08
  +4.20000000000000000000e+08
  +4.20500000000000000000e+08
  +4.21000000000000000000e+08
  +4.21500000000000000000e+08
  +4.22000000000000000000e+08
  +4.22500000000000000000e+08
  +4.23000000000000000000e+08
  +4.23500000000000000000e+08
  +4.24000000000000000000e+08
  +4.24500000000000000000e+08
  +4.25000000000000000000e+08
  +4.25500000000000000000e+08
  +4.26000000000000000000e+08
  +4.26500000000000000000e+08
  +4.27000000000000000000e+08
  +4.27500000000000000000e+08
  +4.28000000000000000000e+08
  +4.28500000000000000000e+08
  +4.29000000000000000000e+08
  +4.29500000000000000000e+08
  +4.30000000000000000000e+08
  +4.30500000000000000000e+08
  +4.31000000000000000000e+08
  +4.31500000000000000000e+08
  +4.32000000000000000000e+08
  +4.32500000000000000000e+08
  +4.33000000000000000000e+08
  +4.33500000000000000000e+08
  +4.34000000000000000000e+08
  +4.34500000000000000000e+08
  +4.35000000000000000000e+08
  +4.35500000000000000000e+08
  +4.36000000000000000000e+08
  +4.36500000000000000000e+08
  +4.37000000000000000000e+08
  +4.37500000000000000000e+08
  +4.38000000000000000000e+08
  +4.38500000000000000000e+08
  +4.39000000000000000000e+08
  +4.39500000000000000000e+08
  +4.40000000000000000000e+08
  +4.40500000000000000000e+08
  +4.41000000000000000000e+08
  +4.41500000000000000000e+08
  +4.42000000000000000000e+08
  +4.42500000000000000000e+08
  +4.43000000000000000000e+08
  +4.43500000000000000000e+08
  +4.44000000000000000000e+08
  +4.44500000000000000000e+08
  +4.45000000000000000000e+08
  +4.45500000000000000000e+08
  +4.46000000000000000000e+08
  +4.46500000000000000000e+08
  +4.47000000000000000000e+08
  +4.47500000000000000000e+08
  +4.48000000000000000000e+08
  +4.48500000000000000000e+08
  +4.49000000000000000000e+08
  +4.49500000000000000000e+08
  +4.50000000000000000000e+08
  +4.50500000000000000000e+08
  +4.51000000000000000000e+08
  +4.51500000000000000000e+08
  +4.52000000000000000000e+08
  +4.52500000000000000000e+08
  +4.53000000000000000000e+08
  +4.53500000000000000000e+08
  +4.54000000000000000000e+08
  +4.54500000000000000000e+08
  +4.55000000000000000000e+08
  +4.55500000000000000000e+08
  +4.56000000000000000000e+08
  +4.56500000000000000000e+08
  +4.57000000000000000000e+08
  +4.57500000000000000000e+08
  +4.58000000000000000000e+08
  +4.58500000000000000000e+08
  +4.59000000000000000000e+08
  +4.59500000000000000000e+08
  +4.60000000000000000000e+08
  +4.60500000000000000000e+08
  +4.61000000000000000000e+08
  +4.61500000000000000000e+08
  +4.62000000000000000000e+08
  +4.62500000000000000000e+08
  +4.63000000000000000000e+08
  +4.63500000000000000000e+08
  +4.64000000000000000000e+08
  +4.64500000000000000000e+08
  +4.65000000000000000000e+08
  +4.65500000000000000000e+08
  +4.66000000000000000000e+08
  +4.66500000000000000000e+08
  +4.67000000000000000000e+08
  +4.67500000000000000000e+08
  +4.68000000000000000000e+08
  +4.68500000000000000000e+08
  +4.69000000000000000000e+08
  +4.69500000000000000000e+08
  +4.70000000000000000000e+08
  +4.70500000000000000000e+08
  +4.71000000000000000000e+08
  +4.71500000000000000000e+08
  +4.72000000000000000000e+08
  +4.72500000000000000000e+08
  +4.73000000000000000000e+08
  +4.73500000000000000000e+08
  +4.74000000000000000000e+08
  +4.74500000000000000000e+08
  +4.75000000000000000000e+08
  +4.75500000000000000000e+08
  +4.76000000000000000000e+08
  +4.76500000000000000000e+08
  +4.77000000000000000000e+08
  +4.77500000000000000000e+08
  +4.78000000000000000000e+08
  +4.78500000000000000000e+08
  +4.79000000000000000000e+08
  +4.79500000000000000000e+08
  +4.80000000000000000000e+08
  +4.80500000000000000000e+08
  +4.81000000000000000000e+08
  +4.81500000000000000000e+08
  +4.82000000000000000000e+08
  +4.82500000000000000000e+08
  +4.83000000000000000000e+08
  +4.83500000000000000000e+08
  +4.84000000000000000000e+08
  +4.84500000000000000000e+08
  +4.85000000000000000000e+08
  +4.85500000000000000000e+08
  +4.86000000000000000000e+08
  +4.86500000000000000000e+08
  +4.87000000000000000000e+08
  +4.87500000000000000000e+08
  +4.88000000000000000000e+08
  +4.88500000000000000000e+08
  +4.89000000000000000000e+08
  +4.89500000000000000000e+08
  +4.90000000000000000000e+08
  +4.90500000000000000000e+08
  +4.91000000000000000000e+08
  +4.91500000000000000000e+08
  +4.92000000000000000000e+08
  +4.92500000000000000000e+08
  +4.93000000000000000000e+08
  +4.93500000000000000000e+08
  +4.94000000000000000000e+08
  +4.94500000000000000000e+08
  +4.95000000000000000000e+08
  +4.95500000000000000000e+08
  +4.96000000000000000000e+08
  +4.96500000000000000000e+08
  +4.97000000000000000000e+08
  +4.97500000000000000000e+08
  +4.98000000000000000000e+08
  +4.98500000000000000000e+08
  +4.99000000000000000000e+08
  +4.99500000000000000000e+08
  +5.00000000000000000000e+08
</indep>
<dep S[2,2] frequency>
  -4.05978995087570460054e-01+j7.20025520158154574979e-02
  -4.03141299541512232452e-01+j7.46427424444485176913e-02
  -4.00278520323237019252e-01+j7.72547324384370015515e-02
  -3.97390950902152595425e-01+j7.98382024904576992341e-02
  -3.94478890428870687668e-01+j8.23928360271448112506e-02
  -3.91542643716358607087e-01+j8.49183195273403579328e-02
  -3.88582521218428678100e-01+j8.74143426407238965936e-02
  -3.85598839005533822188e-01+j8.98805983067487157534e-02
  -3.82591918737842984211e-01+j9.23167828738266638133e-02
  -3.79562087635578138123e-01+j9.47225962186939440812e-02
  -3.76509678446573015087e-01+j9.70977418658952595720e-02
  -3.73435029411047281211e-01+j9.94419271072982668969e-02
  -3.70338484223570851839e-01+j1.01754863121593319697e-01
  -3.67220391992201466991e-01+j1.04036265093695290407e-01
  -3.64081107194777875424e-01+j1.06285852333960317839e-01
  -3.60920989632354083376e-01+j1.08503348397177845630e-01
  -3.57740404379761178788e-01+j1.10688481201232646889e-01
  -3.54539721733302948259e-01+j1.12840983145381212882e-01
  -3.51319317155546761988e-01+j1.14960591228051245416e-01
  -3.48079571217231487079e-01+j1.17047047164102080430e-01
  -3.44820869536282881285e-01+j1.19100097501459001315e-01
  -3.41543602713921645719e-01+j1.21119493737048833371e-01
  -3.38248166267884731173e-01+j1.23104992431951720810e-01
  -3.34934960562751737889e-01+j1.25056355325701695769e-01
  -3.31604390737380183563e-01+j1.26973349449638506226e-01
  -3.28256866629469457042e-01+j1.28855747239259132986e-01
  -3.24892802697254790001e-01+j1.30703326645446149534e-01
  -3.21512617938348177482e-01+j1.32515871244548610886e-01
  -3.18116735805738182208e-01+j1.34293170347181967106e-01
  -3.14705584120968440143e-01+j1.36035019105702426057e-01
  -3.11279594984529173196e-01+j1.37741218620255123639e-01
  -3.07839204683448164346e-01+j1.39411576043337148700e-01
  -3.04384853596155635636e-01+j1.41045904682764733362e-01
  -3.00916986094610483526e-01+j1.42644024103007915905e-01
  -2.97436050443738886351e-01+j1.44205760224764722999e-01
  -2.93942498698218368514e-01+j1.45730945422737956374e-01
  -2.90436786596630747148e-01+j1.47219418621519382295e-01
  -2.86919373453038195620e-01+j1.48671025389500111036e-01
  -2.83390722046008014523e-01+j1.50085618030733169981e-01
  -2.79851298505148005091e-01+j1.51463055674694535568e-01
  -2.76301572195168099189e-01+j1.52803204363827771495e-01
  -2.72742015597556453077e-01+j1.54105937138836857070e-01
  -2.69173104189888379167e-01+j1.55371134121628895475e-01
  -2.65595316322830177214e-01+j1.56598682595856908417e-01
  -2.62009133094905422023e-01+j1.57788477084975453657e-01
  -2.58415038225057069887e-01+j1.58940419427754053849e-01
  -2.54813517923098253881e-01+j1.60054418851165780602e-01
  -2.51205060758080134242e-01+j1.61130392040617742566e-01
  -2.47590157524665815947e-01+j1.62168263207408624993e-01
  -2.43969301107564762177e-01+j1.63167964153413225237e-01
  -2.40342986344100395524e-01+j1.64129434332878132441e-01
  -2.36711709884988519281e-01+j1.65052620911315339747e-01
  -2.33075970053374326163e-01+j1.65937478821401807050e-01
  -2.29436266702246816074e-01+j1.66783970815865323356e-01
  -2.25793101070259349950e-01+j1.67592067517265908005e-01
  -2.22146975636064669679e-01+j1.68361747464673083829e-01
  -2.18498393971244098122e-01+j1.69092997157138158482e-01
  -2.14847860591888428772e-01+j1.69785811093963068252e-01
  -2.11195880808954294938e-01+j1.70440191811691232893e-01
  -2.07542960577433766023e-01+j1.71056149917795663473e-01
  -2.03889606344465568188e-01+j1.71633704121033570100e-01
  -2.00236324896444717325e-01+j1.72172881258412235894e-01
  -1.96583623205242918885e-01+j1.72673716318755332555e-01
  -1.92932008273609678639e-01+j1.73136252462821882414e-01
  -1.89281986979861316378e-01+j1.73560541039977866973e-01
  -1.85634065921939483967e-01+j1.73946641601358031881e-01
  -1.81988751260937553500e-01+j1.74294621909534264148e-01
  -1.78346548564185081176e-01+j1.74604557944659510849e-01
  -1.74707962647985270976e-01+j1.74876533907056597172e-01
  -1.71073497420108799894e-01+j1.75110642216268097560e-01
  -1.67443655722119333351e-01+j1.75306983506534230788e-01
  -1.63818939171648414455e-01+j1.75465666618707966107e-01
  -1.60199848004710376781e-01+j1.75586808588593767944e-01
  -1.56586880918128779072e-01+j1.75670534631718305851e-01
  -1.52980534912218302246e-01+j1.75716978124533074190e-01
  -1.49381305133765074356e-01+j1.75726280582050253809e-01
  -1.45789684719449919026e-01+j1.75698591631925027379e-01
  -1.42206164639768817270e-01+j1.75634068984999558438e-01
  -1.38631233543573428868e-01+j1.75532878402318626154e-01
  -1.35065377603314440424e-01+j1.75395193658633041789e-01
  -1.31509080361089714106e-01+j1.75221196502414744423e-01
  -1.27962822575574008965e-01+j1.75011076612416049958e-01
  -1.24427082069942740450e-01+j1.74765031550782545811e-01
  -1.20902333580877374697e-01+j1.74483266712755047401e-01
  -1.17389048608723844946e-01+j1.74165995273009910349e-01
  -1.13887695268926114611e-01+j1.73813438128644304204e-01
  -1.10398738144787900151e-01+j1.73425823838874032523e-01
  -1.06922638141682735391e-01+j1.73003388561452531302e-01
  -1.03459852342772828937e-01+j1.72546375985893563065e-01
  -1.00010833866332471409e-01+j1.72055037263498189493e-01
  -9.65760317247608135460e-02+j1.71529630934290577837e-01
  -9.31558906853520718450e-02+j1.70970422850848097207e-01
  -8.97508511329181968286e-02+j1.70377686099143277332e-01
  -8.63613489343309503887e-02+j1.69751700916402459285e-01
  -8.29878153050624400855e-02+j1.69092754606081585589e-01
  -7.96306766777911123611e-02+j1.68401141449982028053e-01
  -7.62903545731581367306e-02+j1.67677162617600128414e-01
  -7.29672654727265834751e-02+j1.66921126072753944758e-01
  -6.96618206942210549393e-02+j1.66133346477574495026e-01
  -6.63744262691142172805e-02+j1.65314145093902131745e-01
  -6.31054828226082498155e-02+j1.64463849682192408963e-01
  -5.98553854560852083289e-02+j1.63582794397977043799e-01
  -5.66245236320816469622e-02+j1.62671319685967541435e-01
  -5.34132810618284104009e-02+j1.61729772171875757492e-01
  -5.02220355954294261913e-02+j1.60758504552022229994e-01
  -4.70511591147143026781e-02+j1.59757875480821931458e-01
  -4.39010174288069210391e-02+j1.58728249456220771307e-01
  -4.07719701724710836821e-02+j1.57669996703155845807e-01
  -3.76643707072668587621e-02+j1.56583493055144518102e-01
  -3.45785660255473192848e-02+j1.55469119834057561969e-01
  -3.15148966573410849179e-02+j1.54327263728186780956e-01
  -2.84736965801563046696e-02+j1.53158316668671301564e-01
  -2.54552931317280073387e-02+j1.51962675704382266240e-01
  -2.24600069257331336203e-02+j1.50740742875341171558e-01
  -1.94881517705233209270e-02+j1.49492925084770245103e-01
  -1.65400345908521817506e-02+j1.48219633969850439481e-01
  -1.36159553526625787256e-02+j1.46921285771284437782e-01
  -1.07162069909189083816e-02+j1.45598301201745966571e-01
  -7.84107534050637600131e-03+j1.44251105313301652977e-01
  -4.99083907021491413047e-03+j1.42880127363902958981e-01
  -2.16576961979730864272e-03+j1.41485800683024187663e-01
  +6.33868859872044332349e-04+j1.40068562536541957320e-01
  +3.40781956355240556178e-03+j1.38628853990935940743e-01
  +6.15583308530009976067e-03+j1.37167119776908263962e-01
  +8.87766746905138681711e-03+j1.35683808152496282462e-01
  +1.15730882561155823396e-02+j1.34179370765770328289e-01
  +1.42418685296067382140e-02+j1.32654262517202137239e-01
  +1.68837889558098863674e-02+j1.31108941421783753434e-01
  +1.94986378225094902916e-02+j1.29543868470988254860e-01
  +2.20862110742848782863e-02+j1.27959507494641910874e-01
  +2.46463123448069643118e-02+j1.26356325022799087510e-01
  +2.71787529861349241855e-02+j1.24734790147700530527e-01
  +2.96833520950748885880e-02+j1.23095374385889022584e-01
  +3.21599365365765610392e-02+j1.21438551540558783981e-01
  +3.46083409642562456199e-02+j1.19764797564226976867e-01
  +3.70284078380160863730e-02+j1.18074590421779118676e-01
  +3.94199874388552196081e-02+j1.16368409953999704665e-01
  +4.17829378808443063775e-02+j1.14646737741609716643e-01
  +4.41171251203666958673e-02+j1.12910056969930630566e-01
  +4.64224229626113427116e-02+j1.11158852294213850165e-01
  +4.86987130653907529521e-02+j1.09393609705707092750e-01
  +5.09458849403227054253e-02+j1.07614816398533028052e-01
  +5.31638359514096103808e-02+j1.05822960637434876352e-01
  +5.53524713110684629669e-02+j1.04018531626450305705e-01
  +5.75117040736857765282e-02+j1.02202019378581684950e-01
  +5.96414551266906123317e-02+j1.00373914586505935675e-01
  +6.17416531792593925587e-02+j9.85347084943989232064e-02
  +6.38122347486664853733e-02+j9.66848927709085120830e-02
  +6.58531441443533926972e-02+j9.48249593833404846865e-02
  +6.78643334497598393895e-02+j9.29554004731050764754e-02
  +6.98457625019937022870e-02+j9.10767082324614590805e-02
  +7.17973988693680897910e-02+j8.91893747826234678522e-02
  +7.37192178269101550114e-02+j8.72938920532512624417e-02
  +7.56112023298424196227e-02+j8.53907516633807400774e-02
  +7.74733429851561794521e-02+j8.34804448038276303290e-02
  +7.93056380213129630263e-02+j8.15634621210938742797e-02
  +8.11080932561184519969e-02+j7.96402936028248881195e-02
  +8.28807220628766661008e-02+j7.77114284648408176759e-02
  +8.46235453348498367632e-02+j7.57773550397632111864e-02
  +8.63365914481107332712e-02+j7.38385606672853772592e-02
  +8.80198962228426751153e-02+j7.18955315860892174573e-02
  +8.96735028831600056165e-02+j6.99487528274457537325e-02
  +9.12974620155029281676e-02+j6.79987081105109525403e-02
  +9.28918315256977988881e-02+j6.60458797393447816226e-02
  +9.44566765947135178472e-02+j6.40907485016509737008e-02
  +9.59920696332176581755e-02+j6.21337935692762854956e-02
  +9.74980902349713574040e-02+j6.01754924004541114080e-02
  +9.89748251291418523756e-02+j5.82163206438244817953e-02
  +1.00422368131600159291e-01+j5.62567520442150414972e-02
  +1.01840820095260464750e-01+j5.42972583502129430011e-02
  +1.03230288859549657055e-01+j5.23383092234971925016e-02
  +1.04590889199029091206e-01+j5.03803721499697793051e-02
  +1.05922742771293654229e-01+j4.84239123526472581283e-02
  +1.07225978064163396386e-01+j4.64693927063297845814e-02
  +1.08500730342246498594e-01+j4.45172736540425523222e-02
  +1.09747141592959118750e-01+j4.25680131252246241047e-02
  +1.10965360472033869321e-01+j4.06220664556661281708e-02
  +1.12155542248593975696e-01+j3.86798863091845079865e-02
  +1.13317848749860061730e-01+j3.67419226010167743190e-02
  +1.14452448305549181473e-01+j3.48086224229093854632e-02
  +1.15559515692007175325e-01+j3.28804299698995661227e-02
  +1.16639232076168997132e-01+j3.09577864687562986923e-02
  +1.17691784959370271402e-01+j2.90411301080553962972e-02
  +1.18717368121093902467e-01+j2.71308959698819962547e-02
  +1.19716181562698253948e-01+j2.52275159631134004989e-02
  +1.20688431451170252728e-01+j2.33314187582686627387e-02
  +1.21634330062991180554e-01+j2.14430297238850930963e-02
  +1.22554095728130418852e-01+j1.95627708643996978122e-02
  +1.23447952774244196217e-01+j1.76910607594933655395e-02
  +1.24316131471119473151e-01+j1.58283145048687956535e-02
  +1.25158867975427468000e-01+j1.39749436544202021437e-02
  +1.25976404275807529753e-01+j1.21313561637657885139e-02
  +1.26768988138355631623e-01+j1.02979563350913405628e-02
  +1.27536873052556787300e-01+j8.47514476326829968578e-03
  +1.28280318177690144665e-01+j6.66331828320898544860e-03
  +1.28999588289769206995e-01+j4.86286991840895188588e-03
  +1.29694953729056372538e-01+j3.07418883062499093128e-03
  +1.30366690348169667057e-01+j1.29766027065730815693e-03
  +1.31015079460858996363e-01-j4.66334469827744957371e-04
  +1.31640407791447089370e-01-j2.21741810548076179188e-03
  +1.32242967425008128846e-01-j3.95521740350229800143e-03
</dep>
<dep S[2,1] frequency>
  -5.70263289284405838764e-01-j7.10490301795475676094e-01
  -5.74590443908867487544e-01-j7.08344108024455798578e-01
  -5.78914135326580647778e-01-j7.06163746168536610170e-01
  -5.83234024735533762573e-01-j7.03949121709066538699e-01
  -5.87549770645667379654e-01-j7.01700144357711885768e-01
  -5.91861028942227029859e-01-j6.99416728124016451318e-01
  -5.96167452950952525548e-01-j6.97098791381961846447e-01
  -6.00468693505107786734e-01-j6.94746256935490080764e-01
  -6.04764399014333320359e-01-j6.92359052082916259785e-01
  -6.09054215535296261663e-01-j6.89937108680199973065e-01
  -6.13337786844145416154e-01-j6.87480363202998545624e-01
  -6.17614754510718566571e-01-j6.84988756807454635123e-01
  -6.21884757974513258105e-01-j6.82462235389675431207e-01
  -6.26147434622382315084e-01-j6.79900749643840285330e-01
  -6.30402419867928220931e-01-j6.77304255118870379704e-01
  -6.34649347232580596234e-01-j6.74672712273634234137e-01
  -6.38887848428327465022e-01-j6.72006086530613888641e-01
  -6.43117553442060341240e-01-j6.69304348327989018230e-01
  -6.47338090621516593082e-01-j6.66567473170080915246e-01
  -6.51549086762778340010e-01-j6.63795441676110153928e-01
  -6.55750167199291245090e-01-j6.60988239627216422889e-01
  -6.59940955892375891167e-01-j6.58145858011681239574e-01
  -6.64121075523185999678e-01-j6.55268293068317242422e-01
  -6.68290147586073191022e-01-j6.52355546327969437748e-01
  -6.72447792483324424673e-01-j6.49407624653061343878e-01
  -6.76593629621225156612e-01-j6.46424540275191139571e-01
  -6.80727277507391259626e-01-j6.43406310830652361510e-01
  -6.84848353849354496425e-01-j6.40352959393923781839e-01
  -6.88956475654310063206e-01-j6.37264514509003676679e-01
  -6.93051259330019542304e-01-j6.34141010218597922510e-01
  -6.97132320786780557142e-01-j6.30982486091104188830e-01
  -7.01199275540444477706e-01-j6.27788987245340490695e-01
  -7.05251738816395024045e-01-j6.24560564372996340765e-01
  -7.09289325654460345305e-01-j6.21297273758766421814e-01
  -7.13311651014676417759e-01-j6.17999177298112267742e-01
  -7.17318329883862682017e-01-j6.14666342512641405982e-01
  -7.21308977382941307610e-01-j6.11298842563062105881e-01
  -7.25283208874933582599e-01-j6.07896756259672654821e-01
