<Qucs Dataset 1.0.7>
<indep frequency 201>
  +4.00000000000000000000e+08
  +4.00500000000000000000e+08
  +4.01000000000000000000e+08
  +4.01500000000000000000e+08
  +4.02000000000000000000e+08
  +4.02500000000000000000e+08
  +4.03000000000000000000e+08
  +4.03500000000000000000e+08
  +4.04000000000000000000e+08
  +4.04500000000000000000e+08
  +4.05000000000000000000e+08
  +4.05500000000000000000e+08
  +4.06000000000000000000e+08
  +4.06500000000000000000e+08
  +4.07000000000000000000e+08
  +4.07500000000000000000e+08
  +4.08000000000000000000e+08
  +4.08500000000000000000e+08
  +4.09000000000000000000e+08
  +4.09500000000000000000e+08
  +4.10000000000000000000e+08
  +4.10500000000000000000e+08
  +4.11000000000000000000e+08
  +4.11500000000000000000e+08
  +4.12000000000000000000e+08
  +4.12500000000000000000e+08
  +4.13000000000000000000e+08
  +4.13500000000000000000e+08
  +4.14000000000000000000e+08
  +4.14500000000000000000e+08
  +4.15000000000000000000e+08
  +4.15500000000000000000e+08
  +4.16000000000000000000e+08
  +4.16500000000000000000e+08
  +4.17000000000000000000e+08
  +4.17500000000000000000e+08
  +4.18000000000000000000e+08
  +4.18500000000000000000e+08
  +4.19000000000000000000e+08
  +4.19500000000000000000e+08
  +4.20000000000000000000e+08
  +4.20500000000000000000e+08
  +4.21000000000000000000e+08
  +4.21500000000000000000e+08
  +4.22000000000000000000e+08
  +4.22500000000000000000e+08
  +4.23000000000000000000e+08
  +4.23500000000000000000e+08
  +4.24000000000000000000e+08
  +4.24500000000000000000e+08
  +4.25000000000000000000e+08
  +4.25500000000000000000e+08
  +4.26000000000000000000e+08
  +4.26500000000000000000e+08
  +4.27000000000000000000e+08
  +4.27500000000000000000e+08
  +4.28000000000000000000e+08
  +4.28500000000000000000e+08
  +4.29000000000000000000e+08
  +4.29500000000000000000e+08
  +4.30000000000000000000e+08
  +4.30500000000000000000e+08
  +4.31000000000000000000e+08
  +4.31500000000000000000e+08
  +4.32000000000000000000e+08
  +4.32500000000000000000e+08
  +4.33000000000000000000e+08
  +4.33500000000000000000e+08
  +4.34000000000000000000e+08
  +4.34500000000000000000e+08
  +4.35000000000000000000e+08
  +4.35500000000000000000e+08
  +4.36000000000000000000e+08
  +4.36500000000000000000e+08
  +4.37000000000000000000e+08
  +4.37500000000000000000e+08
  +4.38000000000000000000e+08
  +4.38500000000000000000e+08
  +4.39000000000000000000e+08
  +4.39500000000000000000e+08
  +4.40000000000000000000e+08
  +4.40500000000000000000e+08
  +4.41000000000000000000e+08
  +4.41500000000000000000e+08
  +4.42000000000000000000e+08
  +4.42500000000000000000e+08
  +4.43000000000000000000e+08
  +4.43500000000000000000e+08
  +4.44000000000000000000e+08
  +4.44500000000000000000e+08
  +4.45000000000000000000e+08
  +4.45500000000000000000e+08
  +4.46000000000000000000e+08
  +4.46500000000000000000e+08
  +4.47000000000000000000e+08
  +4.47500000000000000000e+08
  +4.48000000000000000000e+08
  +4.48500000000000000000e+08
  +4.49000000000000000000e+08
  +4.49500000000000000000e+08
  +4.50000000000000000000e+08
  +4.50500000000000000000e+08
  +4.51000000000000000000e+08
  +4.51500000000000000000e+08
  +4.52000000000000000000e+08
  +4.52500000000000000000e+08
  +4.53000000000000000000e+08
  +4.53500000000000000000e+08
  +4.54000000000000000000e+08
  +4.54500000000000000000e+08
  +4.55000000000000000000e+08
  +4.55500000000000000000e+08
  +4.56000000000000000000e+08
  +4.56500000000000000000e+08
  +4.57000000000000000000e+08
  +4.57500000000000000000e+08
  +4.58000000000000000000e+08
  +4.58500000000000000000e+08
  +4.59000000000000000000e+08
  +4.59500000000000000000e+08
  +4.60000000000000000000e+08
  +4.60500000000000000000e+08
  +4.61000000000000000000e+08
  +4.61500000000000000000e+08
  +4.62000000000000000000e+08
  +4.62500000000000000000e+08
  +4.63000000000000000000e+08
  +4.63500000000000000000e+08
  +4.64000000000000000000e+08
  +4.64500000000000000000e+08
  +4.65000000000000000000e+08
  +4.65500000000000000000e+08
  +4.66000000000000000000e+08
  +4.66500000000000000000e+08
  +4.67000000000000000000e+08
  +4.67500000000000000000e+08
  +4.68000000000000000000e+08
  +4.68500000000000000000e+08
  +4.69000000000000000000e+08
  +4.69500000000000000000e+08
  +4.70000000000000000000e+08
  +4.70500000000000000000e+08
  +4.71000000000000000000e+08
  +4.71500000000000000000e+08
  +4.72000000000000000000e+08
  +4.72500000000000000000e+08
  +4.73000000000000000000e+08
  +4.73500000000000000000e+08
  +4.74000000000000000000e+08
  +4.74500000000000000000e+08
  +4.75000000000000000000e+08
  +4.75500000000000000000e+08
  +4.76000000000000000000e+08
  +4.76500000000000000000e+08
  +4.77000000000000000000e+08
  +4.77500000000000000000e+08
  +4.78000000000000000000e+08
  +4.78500000000000000000e+08
  +4.79000000000000000000e+08
  +4.79500000000000000000e+08
  +4.80000000000000000000e+08
  +4.80500000000000000000e+08
  +4.81000000000000000000e+08
  +4.81500000000000000000e+08
  +4.82000000000000000000e+08
  +4.82500000000000000000e+08
  +4.83000000000000000000e+08
  +4.83500000000000000000e+08
  +4.84000000000000000000e+08
  +4.84500000000000000000e+08
  +4.85000000000000000000e+08
  +4.85500000000000000000e+08
  +4.86000000000000000000e+08
  +4.86500000000000000000e+08
  +4.87000000000000000000e+08
  +4.87500000000000000000e+08
  +4.88000000000000000000e+08
  +4.88500000000000000000e+08
  +4.89000000000000000000e+08
  +4.89500000000000000000e+08
  +4.90000000000000000000e+08
  +4.90500000000000000000e+08
  +4.91000000000000000000e+08
  +4.91500000000000000000e+08
  +4.92000000000000000000e+08
  +4.92500000000000000000e+08
  +4.93000000000000000000e+08
  +4.93500000000000000000e+08
  +4.94000000000000000000e+08
  +4.94500000000000000000e+08
  +4.95000000000000000000e+08
  +4.95500000000000000000e+08
  +4.96000000000000000000e+08
  +4.96500000000000000000e+08
  +4.97000000000000000000e+08
  +4.97500000000000000000e+08
  +4.98000000000000000000e+08
  +4.98500000000000000000e+08
  +4.99000000000000000000e+08
  +4.99500000000000000000e+08
  +5.00000000000000000000e+08
</indep>
<dep S[2,2] frequency>
  -3.99334390058814991953e-01+j8.55304746355600720165e-02
  -3.96405247461358134498e-01+j8.82385979246982365964e-02
  -3.93449528076770027596e-01+j9.09183599234368866604e-02
  -3.90467513713610825388e-01+j9.35694218825607881840e-02
  -3.87459492040638953103e-01+j9.61914476318433409041e-02
  -3.84425756576288579769e-01+j9.87841036985274700832e-02
  -3.81366606675563435402e-01+j1.01347059426382501979e-01
  -3.78282347514294292612e-01+j1.03879987095273351727e-01
  -3.75173290070725196088e-01+j1.06382562041169970168e-01
  -3.72039751104415394867e-01+j1.08854462776561466963e-01
  -3.68882053132405962614e-01+j1.11295371111176488732e-01
  -3.65700524402641391486e-01+j1.13704972272970605829e-01
  -3.62495498864610798950e-01+j1.16082955029292611560e-01
  -3.59267316137194203662e-01+j1.18429011808184103671e-01
  -3.56016321473677177512e-01+j1.20742838819713094178e-01
  -3.52742865723933651800e-01+j1.23024136177301846029e-01
  -3.49447305293732635167e-01+j1.25272608018953901521e-01
  -3.46130002101187106422e-01+j1.27487962628318407532e-01
  -3.42791323530294123056e-01+j1.29669912555512689689e-01
  -3.39431642381577802769e-01+j1.31818174737626969684e-01
  -3.36051336819824020274e-01+j1.33932470618848220578e-01
  -3.32650790318882338958e-01+j1.36012526270101408166e-01
  -3.29230391603550831547e-01+j1.38058072508158991010e-01
  -3.25790534588525471094e-01+j1.40068845014115983538e-01
  -3.22331618314415202509e-01+j1.42044584451167243966e-01
  -3.18854046880828467803e-01+j1.43985036581607994677e-01
  -3.15358229376537124722e-01+j1.45889952382954324328e-01
  -3.11844579806711208469e-01+j1.47759088163147589423e-01
  -3.08313517017243021723e-01+j1.49592205674707656726e-01
  -3.04765464616168935130e-01+j1.51389072227809007298e-01
  -3.01200850892207383502e-01+j1.53149460802147863170e-01
  -2.97620108730409449471e-01+j1.54873150157564032359e-01
  -2.94023675524970773409e-01+j1.56559924943295625255e-01
  -2.90411993089196185380e-01+j1.58209575805825508610e-01
  -2.86785507562658081859e-01+j1.59821899495200370200e-01
  -2.83144669315568253687e-01+j1.61396698969777263599e-01
  -2.79489932850394806607e-01+j1.62933783499279227769e-01
  -2.75821756700749765034e-01+j1.64432968766127396432e-01
  -2.72140603327583385784e-01+j1.65894076964912262628e-01
  -2.68446939012726537577e-01+j1.67316936899993273791e-01
  -2.64741233749806292863e-01+j1.68701384081076655175e-01
  -2.61023961132598181223e-01+j1.70047260816756473645e-01
  -2.57295598240830925008e-01+j1.71354416305901979811e-01
  -2.53556625523510381637e-01+j1.72622706726836327995e-01
  -2.49807526679812208492e-01+j1.73851995324223240758e-01
  -2.46048788537567925117e-01+j1.75042152493594782570e-01
  -2.42280900929441322944e-01+j1.76193055863437475494e-01
  -2.38504356566809627704e-01+j1.77304590374787851559e-01
  -2.34719650911433430629e-01+j1.78376648358236356007e-01
  -2.30927282044964210517e-01+j1.79409129608305295545e-01
  -2.27127750536359390710e-01+j1.80401941455106962220e-01
  -2.23321559307268546757e-01+j1.81354998833247071932e-01
  -2.19509213495447941256e-01+j1.82268224347869711721e-01
  -2.15691220316295118042e-01+j1.83141548337832305027e-01
  -2.11868088922550018571e-01+j1.83974908935908509910e-01
  -2.08040330262255490634e-01+j1.84768252125992904489e-01
  -2.04208456935045523650e-01+j1.85521531797234351391e-01
  -2.00372983046827379816e-01+j1.86234709795052633119e-01
  -1.96534424062974111269e-01+j1.86907755968991784457e-01
  -1.92693296660052804103e-01+j1.87540648217352001748e-01
  -1.88850118576222747446e-01+j1.88133372528565157022e-01
  -1.85005408460358677925e-01+j1.88685923019265067158e-01
  -1.81159685719997243236e-01+j1.89198301969014714974e-01
  -1.77313470368184178394e-01+j1.89670519851643237796e-01
  -1.73467282869323224936e-01+j1.90102595363183635158e-01
  -1.69621643984110836989e-01+j1.90494555446335700477e-01
  -1.65777074613644603840e-01+j1.90846435311464168727e-01
  -1.61934095642796760384e-01+j1.91158278454094998633e-01
  -1.58093227782962364447e-01+j1.91430136668855610527e-01
  -1.54254991414257747184e-01+j1.91662070059891553875e-01
  -1.50419906427262384252e-01+j1.91854147047691270256e-01
  -1.46588492064426922923e-01+j1.92006444372328610726e-01
  -1.42761266761210314780e-01+j1.92119047093108452628e-01
  -1.38938747987058464073e-01+j1.92192048584599761707e-01
  -1.35121452086331472753e-01+j1.92225550529055932980e-01
  -1.31309894119249481736e-01+j1.92219662905210142423e-01
  -1.27504587702992999709e-01+j1.92174503973451205052e-01
  -1.23706044853013119589e-01+j1.92090200257387266891e-01
  -1.19914775824678909721e-01+j1.91966886521791391118e-01
  -1.16131288955353462189e-01+j1.91804705746944026412e-01
  -1.12356090506989969580e-01+j1.91603809099383126657e-01
  -1.08589684509344308605e-01+j1.91364355899080906820e-01
  -1.04832572603907159259e-01+j1.91086513583056227805e-01
  -1.01085253888653969767e-01+j1.90770457665446924178e-01
  -9.73482247636894837406e-02+j1.90416371694071551168e-01
  -9.36219787779065115707e-02+j1.90024447203498508818e-01
  -8.99070064767306664777e-02+j1.89594883664660901479e-01
  -8.62037952510564808861e-02+j1.89127888431036422778e-01
  -8.25128291874691055519e-02+j1.88623676681443253056e-01
  -7.88345889198205918014e-02+j1.88082471359479863615e-01
  -7.51695514822791621690e-02+j1.87504503109657549853e-01
  -7.15181901639138084548e-02+j1.86890010210257806467e-01
  -6.78809743649168018109e-02+j1.86239238502972137557e-01
  -6.42583694545399430886e-02+j1.85552441319369876283e-01
  -6.06508366308324831095e-02+j1.84829879404243169194e-01
  -5.70588327822518781574e-02+j1.84071820835885607837e-01
  -5.34828103512446362267e-02+j1.83278540943363321691e-01
  -4.99232171998540419366e-02+j1.82450322220830019049e-01
  -4.63804964774427452845e-02+j1.81587454238958695418e-01
  -4.28550864906039330471e-02+j1.80690233553540247069e-01
  -3.93474205753238104322e-02+j1.79758963611327537979e-01
  -3.58579269714697779214e-02+j1.78793954653183762016e-01
  -3.23870286996718048655e-02+j1.77795523614607264840e-01
  -2.89351434406558416512e-02+j1.76763994023708959080e-01
  -2.55026834170988814243e-02+j1.75699695896702812181e-01
  -2.20900552780536330033e-02+j1.74602965631008799630e-01
  -1.86976599860120273888e-02+j1.73474145896016451740e-01
  -1.53258927066499128777e-02+j1.72313585521607165463e-01
  -1.19751427013244371445e-02+j1.71121639384508361648e-01
  -8.64579322233288705135e-03+j1.69898668292558535642e-01
  -5.33822141103335034984e-03+j1.68645038866977847736e-01
  -2.05279819882009384457e-03+j1.67361123422705371233e-01
  +1.21011178896868187849e-03+j1.66047299846912410626e-01
  +4.45015032619966444116e-03+j1.64703951475758864076e-01
  +7.66696567609292944923e-03+j1.63331466969490052277e-01
  +1.08602126783570174240e-02+j1.61930240185955226506e-01
  +1.40295528332656793680e-02+j1.60500670052642346874e-01
  +1.71746543826639119779e-02+j1.59043160437309039068e-01
  +2.02951923878646467436e-02+j1.57558120017301461768e-01
  +2.33908488044304863074e-02+j1.56045962147659977859e-01
  +2.64613125538145643745e-02+j1.54507104728086125389e-01
  +2.95062795918434872533e-02+j1.52941970068867005850e-01
  +3.25254529740363063084e-02+j1.51350984755853845698e-01
  +3.55185429177500844311e-02+j1.49734579514573584724e-01
  +3.84852668611439518997e-02+j1.48093189073565389968e-01
  +4.14253495189498832652e-02+j1.46427252027038712345e-01
  +4.43385229350716780772e-02+j1.44737210696933765730e-01
  +4.72245265319882201460e-02+j1.43023510994474523095e-01
  +5.00831071569828867318e-02+j1.41286602281311179929e-01
  +5.29140191252042146886e-02+j1.39526937230318059946e-01
  +5.57170242595663167684e-02+j1.37744971686162287483e-01
  +5.84918919274913240436e-02+j1.35941164525703983568e-01
  +6.12383990745359318986e-02+j1.34115977518330875551e-01
  +6.39563302548933343417e-02+j1.32269875186295238212e-01
  +6.66454776588026320816e-02+j1.30403324665157582807e-01
  +6.93056411368924707439e-02+j1.28516795564387942274e-01
  +7.19366282214787267080e-02+j1.26610759828251595582e-01
  +7.45382541448382784921e-02+j1.24685691596995565367e-01
  +7.71103418545133201256e-02+j1.22742067068479315806e-01
  +7.96527220256410539712e-02+j1.20780364360286079917e-01
  +8.21652330703810385160e-02+j1.18801063372393087003e-01
  +8.46477211444527921635e-02+j1.16804645650492908149e-01
  +8.71000401508233990100e-02+j1.14791594250022013779e-01
  +8.95220517406057347820e-02+j1.12762393600971400076e-01
  +9.19136253111886847300e-02+j1.10717529373548242977e-01
  +9.42746380016513119138e-02+j1.08657488344754790677e-01
  +9.66049746855081048480e-02+j1.06582758265957214250e-01
  +9.89045279608344318767e-02+j1.04493827731490074306e-01
  +1.01173198137826658716e-01+j1.02391186048378518558e-01
  +1.03410893223827848875e-01+j1.00275323107221842056e-01
  +1.05617528905900204261e-01+j9.81467292543016234241e-02
  +1.07793028530971779499e-01+j9.60058951649741948442e-02
  +1.09937323083645011046e-01+j9.38533117183953657925e-02
  +1.12050351161682215650e-01+j9.16894698736226421154e-02
  +1.14132058949259151959e-01+j8.95148605471662167643e-02
  +1.16182400188043266631e-01+j8.73299744920035397877e-02
  +1.18201336146131819049e-01+j8.51353021781321717132e-02
  +1.20188835584944531121e-01+j8.29313336746898555063e-02
  +1.22144874724099850027e-01+j8.07185585336749611418e-02
  +1.24069437204373855810e-01+j7.84974656753251731622e-02
  +1.25962514048766294206e-01+j7.62685432751746550384e-02
  +1.27824103621773599304e-01+j7.40322786528256754357e-02
  +1.29654211586907319731e-01+j7.17891581624776758952e-02
  +1.31452850862537828913e-01+j6.95396670852277687391e-02
  +1.33220041576129044625e-01+j6.72842895231797882838e-02
  +1.34955811016916504830e-01+j6.50235082953861537325e-02
  +1.36660193587122724690e-01+j6.27578048356376427819e-02
  +1.38333230751738478492e-01+j6.04876590921399753809e-02
  +1.39974970986978142218e-01+j5.82135494290648217164e-02
  +1.41585469727439405840e-01+j5.59359525300297741324e-02
  +1.43164789312068885252e-01+j5.36553433034852519934e-02
  +1.44712998928963887391e-01+j5.13721947900489320227e-02
  +1.46230174559113912380e-01+j4.90869780717766990286e-02
  +1.47716398919121971733e-01+j4.68001621833904202230e-02
  +1.49171761402983604761e-01+j4.45122140254629594658e-02
  +1.50596358022993703774e-01+j4.22235982795649972266e-02
  +1.51990291349834771850e-01+j3.99347773253748566935e-02
  +1.53353670451925439000e-01+j3.76462111597479776037e-02
  +1.54686610834084248278e-01+j3.53583573177563281753e-02
  +1.55989234375586482972e-01+j3.30716707956653643841e-02
  +1.57261669267657000493e-01+j3.07866039758800946746e-02
  +1.58504049950485725873e-01+j2.85036065538152999510e-02
  +1.59716517049818207408e-01+j2.62231254667023849780e-02
  +1.60899217313178133359e-01+j2.39456048243154306920e-02
  +1.62052303545795750583e-01+j2.16714858415975319961e-02
  +1.63175934546292200622e-01+j1.94012067731756943090e-02
  +1.64270275042187607895e-01+j1.71352028497454844658e-02
  +1.65335495625288042554e-01+j1.48739062163078250567e-02
  +1.66371772687008256941e-01+j1.26177458722356028442e-02
  +1.67379288353691813018e-01+j1.03671476131443340840e-02
  +1.68358230421982280056e-01+j8.12253397454734682448e-03
  +1.69308792294302179471e-01+j5.88432417727152712317e-03
  +1.70231172914490302972e-01+j3.65293407459485464095e-03
  +1.71125576703659132427e-01+j1.42877610108760322305e-03
  +1.71992213496309442888e-01-j7.87740776872020154187e-04
  +1.72831298476774919415e-01-j2.99621110895303965904e-03
  +1.73643052116024043663e-01-j5.19623300711588576029e-03
  +1.74427700108882421937e-01-j7.38740819028838036076e-03
  +1.75185473311719130951e-01-j9.56934202751183460300e-03
  +1.75916607680641601252e-01-j1.17416435795813789422e-02
  +1.76621344210245390105e-01-j1.39039256392432253318e-02
</dep>
<dep S[2,1] frequency>
  -5.53177214941725781117e-01-j7.26093349159931178427e-01
  -5.57488834101795505127e-01-j7.24073911609307230286e-01
  -5.61797799410207021609e-01-j7.22021158459257850204e-01
  -5.66103784641487806084e-01-j7.19934989452143292432e-01
  -5.70406460807490134357e-01-j7.17815308348305314290e-01
  -5.74705496215513811364e-01-j7.15662022994727808900e-01
  -5.79000556528262544376e-01-j7.13475045392865547811e-01
  -5.83291304825640732901e-01-j7.11254291765583857021e-01
  -5.87577401668365029153e-01-j7.08999682623142168936e-01
  -5.91858505163397219384e-01-j7.06711142828198246590e-01
  -5.96134271031175333455e-01-j7.04388601659747037864e-01
  -6.00404352674629770981e-01-j7.02031992875961519118e-01
  -6.04668401249975118183e-01-j6.99641254775874910088e-01
  -6.08926065739252342368e-01-j6.97216330259861627461e-01
  -6.13176993024612038141e-01-j6.94757166888835930862e-01
  -6.17420827964305085622e-01-j6.92263716942154605505e-01
  -6.21657213470376723841e-01-j6.89735937474135085701e-01
  -6.25885790588020740621e-01-j6.87173790369161485714e-01
  -6.30106198576581455484e-01-j6.84577242395308593892e-01
  -6.34318074992171521131e-01-j6.81946265256442196723e-01
  -6.38521055771876566709e-01-j6.79280835642746771974e-01
  -6.42714775319513154095e-01-j6.76580935279611606070e-01
  -6.46898866592917065610e-01-j6.73846550974850577731e-01
  -6.51072961192709298572e-01-j6.71077674664185552800e-01
  -6.55236689452530107758e-01-j6.68274303454944318403e-01
  -6.59389680530681365767e-01-j6.65436439667950074828e-01
  -6.63531562503135274866e-01-j6.62564090877508893307e-01
  -6.67661962457902435908e-01-j6.59657269949504576623e-01
  -6.71780506590664350242e-01-j6.56715995077495118259e-01
  -6.75886820301679347445e-01-j6.53740289816819419855e-01
  -6.79980528293869235235e-01-j6.50730183116635996221e-01
  -6.84061254672078677963e-01-j6.47685709349861027384e-01
  -6.88128623043425813322e-01-j6.44606908340962569959e-01
  -6.92182256618715352481e-01-j6.41493825391581506956e-01
  -6.96221778314850325842e-01-j6.38346511303916397395e-01
  -7.00246810858199952854e-01-j6.35165022401862011669e-01
  -7.04256976888844921092e-01-j6.31949420549837825867e-01
  -7.08251899065680867729e-01-j6.28699773169299258591e-01
